# vsim -vopt work.top -voptargs="+acc=npr" -assertdebug -l simulation.log -coverage "+UVM_TESTNAME=apb_slv_regression_test" -c -do "do exclusion.do; coverage save -onexit -assert -directive -cvg -codeAll coverage.ucdb; run -all; exit" 
# Start time: 19:43:39 on Dec 04,2025
# ** Note: (vsim-3813) Design is being optimized due to module recompilation...
# //  Questa Sim
# //  Version 10.6c linux Jul 25 2017
# //
# //  Copyright 1991-2017 Mentor Graphics Corporation
# //  All Rights Reserved.
# //
# //  QuestaSim and its associated documentation contain trade
# //  secrets and commercial or financial information that are the property of
# //  Mentor Graphics Corporation and are privileged, confidential,
# //  and exempt from disclosure under the Freedom of Information Act,
# //  5 U.S.C. Section 552. Furthermore, this information
# //  is prohibited from disclosure under the Trade Secrets Act,
# //  18 U.S.C. Section 1905.
# //
# Loading sv_std.std
# Loading work.apb_slv_interfs(fast)
# Loading mtiUvm.uvm_pkg
# Loading work.apb_slv_pkg(fast)
# Loading work.top_sv_unit(fast)
# Loading work.top(fast)
# Loading work.apb_slv_interfs(fast)
# Loading work.apb_slv_assertions(fast)
# Loading work.apb_slave(fast)
# Loading mtiUvm.questa_uvm_pkg(fast)
# ** Warning: (vsim-3838) apb_slv_interfs.sv(1): Variable '/top/interfs/PRESETn' written by continuous and procedural assignments. 
# One of the assignments is implicit. See top.sv(11).
#    Time: 0 ns  Iteration: 0  Instance: /top/interfs File: apb_slv_interfs.sv
# Loading /tools/mentor/questasim_10.6c/questasim/uvm-1.1d/linux/uvm_dpi.so
# do exclusion.do
# Cannot open macro file: exclusion.do
#  coverage save -onexit -assert -directive -cvg -codeAll coverage.ucdb
#  run -all
# ----------------------------------------------------------------
# UVM-1.1d
# (C) 2007-2013 Mentor Graphics Corporation
# (C) 2007-2013 Cadence Design Systems, Inc.
# (C) 2006-2013 Synopsys, Inc.
# (C) 2011-2013 Cypress Semiconductor Corp.
# ----------------------------------------------------------------
# 
#   ***********       IMPORTANT RELEASE NOTES         ************
# 
#   You are using a version of the UVM library that has been compiled
#   with `UVM_NO_DEPRECATED undefined.
#   See http://www.eda.org/svdb/view.php?id=3313 for more details.
# 
#   You are using a version of the UVM library that has been compiled
#   with `UVM_OBJECT_MUST_HAVE_CONSTRUCTOR undefined.
#   See http://www.eda.org/svdb/view.php?id=3770 for more details.
# 
#       (Specify +UVM_NO_RELNOTES to turn off this notice)
# 
# UVM_INFO verilog_src/questa_uvm_pkg-1.2/src/questa_uvm_pkg.sv(215) @ 0: reporter [Questa UVM] QUESTA_UVM-1.2.3
# UVM_INFO verilog_src/questa_uvm_pkg-1.2/src/questa_uvm_pkg.sv(217) @ 0: reporter [Questa UVM]  questa_uvm::init(+struct)
# UVM_INFO @ 0: reporter [RNTST] Running test apb_slv_regression_test...
# 
# 
# In reset
# --------------------------------------------------------------------
# Name                       Type                          Size  Value
# --------------------------------------------------------------------
# uvm_test_top               apb_slv_regression_test       -     @471 
#   env                      apb_slv_env                   -     @478 
#     act_agnt               apb_slv_active_agent          -     @485 
#       act_mon              apb_slv_active_monitor        -     @694 
#         active_item_port   uvm_analysis_port             -     @701 
#       drv                  apb_slv_driver                -     @667 
#         rsp_port           uvm_analysis_port             -     @682 
#         seq_item_port      uvm_seq_item_pull_port        -     @674 
#       seqr                 apb_slv_sequencer             -     @558 
#         rsp_export         uvm_analysis_export           -     @565 
#         seq_item_export    uvm_seq_item_pull_imp         -     @659 
#         arbitration_queue  array                         0     -    
#         lock_queue         array                         0     -    
#         num_last_reqs      integral                      32    'd1  
#         num_last_rsps      integral                      32    'd1  
#     pass_agnt              apb_slv_passive_agent         -     @492 
#       pass_mon             apb_slv_passive_monitor       -     @717 
#         passive_item_port  uvm_analysis_port             -     @724 
#     scb                    apb_slv_scoreboard            -     @530 
#       inputs_export        uvm_analysis_imp_from_input   -     @537 
#       outputs_export       uvm_analysis_imp_from_output  -     @545 
#     subscr                 apb_slv_subscriber            -     @499 
#       aport_inputs         uvm_analysis_imp_from_inp     -     @506 
#       aport_outputs        uvm_analysis_imp_from_out     -     @514 
# --------------------------------------------------------------------
# 
# 
# In reset
# ---------------------Driver in IDLE State @5---------------------
# PSELx = 0
# PENABLE = 0
# ASSERTION PASS: Reset assertion passed
# ---------------------Driver in SETUP State @15---------------------
# PSELx = 1
# PENABLE = 0
# PWRITE= 0
# PADDR = 7f
# PSTRB = 2
# ---------------------Driver in ACCESS State @25---------------------
# PSELx = 1
# PENABLE = 1
# PWRITE= 0
# PADDR = 7f
# PWDATA = f709
# PSTRB = 2
# --------------------------------Active monitor @25--------------------------------
# PSELx:	1
# PENABLE:	1
# PWRITE:	0
# PADDR:	7f
# PSTRB:	10
# ASSERTION PASS: Signals are stable throughout the SETUP and ACCESS States
# ASSERTION PASS: FSM works as intended
# ASSERTION PASS: Signals are stable throughout the SETUP and ACCESS States
# ASSERTION PASS: Signals are stable throughout the SETUP and ACCESS States
# ASSERTION PASS: Signals are stable throughout the SETUP and ACCESS States
# -------------------------------- Passive monitor @75--------------------------------
# PRDATA:	0
# PREADY:	1
# PSLVERR:	0
# -------------------------Scoreboard @ 75-------------------------
# Field		 Expected	Actual
# PRDATA	 0		0
# PSLVERR	     0		 0
# PREADY	     1		 1
# ********************************************TEST PASSED********************************************
# ---------------------Driver End of transaction @75---------------------
# PSELx = 0
# PENABLE = 0
#####################################################################################################
# ---------------------Driver in IDLE State @75---------------------
# PSELx = 0
# PENABLE = 0
# ASSERTION PASS: Signals are stable throughout the SETUP and ACCESS States
# ---------------------Driver in SETUP State @85---------------------
# PSELx = 1
# PENABLE = 0
# PWRITE= 1
# PADDR = 2a
# PWDATA = a1dc
# PSTRB = 2
# ASSERTION PASS: Signals are stable throughout the SETUP and ACCESS States
# ---------------------Driver in ACCESS State @95---------------------
# PSELx = 1
# PENABLE = 1
# PWRITE= 1
# PADDR = 2a
# PWDATA = a1dc
# PSTRB = 2
# --------------------------------Active monitor @95--------------------------------
# PSELx:	1
# PENABLE:	1
# PWRITE:	1
# PADDR:	2a
# PWDATA:	a1dc
# PSTRB:	10
# -------------------------Scoreboard @ 95-------------------------
# Scoreboard writing a100  data into memory at address 2a
# ASSERTION PASS: PRDATA latched when PWRITE is 0
# ASSERTION PASS: Signals are stable throughout the SETUP and ACCESS States
# ASSERTION PASS: FSM works as intended
# ASSERTION PASS: Signals are stable throughout the SETUP and ACCESS States
# ASSERTION PASS: Signals are stable throughout the SETUP and ACCESS States
# ASSERTION PASS: Signals are stable throughout the SETUP and ACCESS States
# -------------------------------- Passive monitor @145--------------------------------
# PRDATA:	0
# PREADY:	1
# PSLVERR:	0
# ---------------------Driver End of transaction @145---------------------
# PSELx = 0
# PENABLE = 0
# ---------------------Driver in IDLE State @145---------------------
# PSELx = 0
# PENABLE = 0
# ASSERTION PASS: Signals are stable throughout the SETUP and ACCESS States
# ---------------------Driver in SETUP State @155---------------------
# PSELx = 1
# PENABLE = 0
# PWRITE= 0
# PADDR = 2a
# PSTRB = 2
# ASSERTION PASS: Signals are stable throughout the SETUP and ACCESS States
# ---------------------Driver in ACCESS State @165---------------------
# PSELx = 1
# PENABLE = 1
# PWRITE= 0
# PADDR = 2a
# PWDATA = cf2f
# PSTRB = 2
# --------------------------------Active monitor @165--------------------------------
# PSELx:	1
# PENABLE:	1
# PWRITE:	0
# PADDR:	2a
# PSTRB:	10
# ASSERTION PASS: Signals are stable throughout the SETUP and ACCESS States
# ASSERTION PASS: FSM works as intended
# ASSERTION PASS: Signals are stable throughout the SETUP and ACCESS States
# ASSERTION PASS: Signals are stable throughout the SETUP and ACCESS States
# ASSERTION PASS: Signals are stable throughout the SETUP and ACCESS States
# -------------------------------- Passive monitor @215--------------------------------
# PRDATA:	a100
# PREADY:	1
# PSLVERR:	0
# -------------------------Scoreboard @ 215-------------------------
# Field		 Expected	Actual
# PRDATA	 a100		a100
# PSLVERR	     0		 0
# PREADY	     1		 1
# ********************************************TEST PASSED********************************************
# ---------------------Driver End of transaction @215---------------------
# PSELx = 0
# PENABLE = 0
#####################################################################################################
# ---------------------Driver in IDLE State @215---------------------
# PSELx = 0
# PENABLE = 0
# ASSERTION PASS: Signals are stable throughout the SETUP and ACCESS States
# ---------------------Driver in SETUP State @225---------------------
# PSELx = 1
# PENABLE = 0
# PWRITE= 1
# PADDR = 2b
# PWDATA = 79c8
# PSTRB = 0
# ASSERTION PASS: Signals are stable throughout the SETUP and ACCESS States
# ---------------------Driver in ACCESS State @235---------------------
# PSELx = 1
# PENABLE = 1
# PWRITE= 1
# PADDR = 2b
# PWDATA = 79c8
# PSTRB = 0
# --------------------------------Active monitor @235--------------------------------
# PSELx:	1
# PENABLE:	1
# PWRITE:	1
# PADDR:	2b
# PWDATA:	79c8
# PSTRB:	00
# -------------------------Scoreboard @ 235-------------------------
# Scoreboard writing 0  data into memory at address 2b
# ASSERTION PASS: Signals are stable throughout the SETUP and ACCESS States
# ASSERTION PASS: FSM works as intended
# ASSERTION PASS: Signals are stable throughout the SETUP and ACCESS States
# ASSERTION PASS: Signals are stable throughout the SETUP and ACCESS States
# ASSERTION PASS: Signals are stable throughout the SETUP and ACCESS States
# -------------------------------- Passive monitor @285--------------------------------
# PRDATA:	a100
# PREADY:	1
# PSLVERR:	0
# ---------------------Driver End of transaction @285---------------------
# PSELx = 0
# PENABLE = 0
# ---------------------Driver in IDLE State @285---------------------
# PSELx = 0
# PENABLE = 0
# ASSERTION PASS: Signals are stable throughout the SETUP and ACCESS States
# ---------------------Driver in SETUP State @295---------------------
# PSELx = 1
# PENABLE = 0
# PWRITE= 0
# PADDR = 2b
# PSTRB = 3
# ASSERTION PASS: Signals are stable throughout the SETUP and ACCESS States
# ---------------------Driver in ACCESS State @305---------------------
# PSELx = 1
# PENABLE = 1
# PWRITE= 0
# PADDR = 2b
# PWDATA = 38f2
# PSTRB = 3
# --------------------------------Active monitor @305--------------------------------
# PSELx:	1
# PENABLE:	1
# PWRITE:	0
# PADDR:	2b
# PSTRB:	11
# ASSERTION PASS: Signals are stable throughout the SETUP and ACCESS States
# ASSERTION PASS: FSM works as intended
# ASSERTION PASS: Signals are stable throughout the SETUP and ACCESS States
# ASSERTION PASS: Signals are stable throughout the SETUP and ACCESS States
# 
# 
# In reset
# 
# 
# In reset
# ASSERTION FAIL: Reset assertion failed
# ASSERTION PASS: Signals are stable throughout the SETUP and ACCESS States
# ASSERTION PASS: Signals are stable throughout the SETUP and ACCESS States
# ASSERTION PASS: Signals are stable throughout the SETUP and ACCESS States
# -------------------------------- Passive monitor @395--------------------------------
# PRDATA:	0
# PREADY:	1
# PSLVERR:	0
# -------------------------Scoreboard @ 395-------------------------
# Field		 Expected	Actual
# PRDATA	 0		0
# PSLVERR	     0		 0
# PREADY	     1		 1
# ********************************************TEST PASSED********************************************
# ---------------------Driver End of transaction @395---------------------
# PSELx = 0
# PENABLE = 0
#####################################################################################################
# ---------------------Driver in IDLE State @395---------------------
# PSELx = 0
# PENABLE = 0
# ASSERTION PASS: Signals are stable throughout the SETUP and ACCESS States
# ---------------------Driver in SETUP State @405---------------------
# PSELx = 1
# PENABLE = 0
# PWRITE= 1
# PADDR = 34
# PWDATA = 8577
# PSTRB = 1
# ASSERTION PASS: Signals are stable throughout the SETUP and ACCESS States
# ---------------------Driver in ACCESS State @415---------------------
# PSELx = 1
# PENABLE = 1
# PWRITE= 1
# PADDR = 34
# PWDATA = 8577
# PSTRB = 1
# --------------------------------Active monitor @415--------------------------------
# PSELx:	1
# PENABLE:	1
# PWRITE:	1
# PADDR:	34
# PWDATA:	8577
# PSTRB:	01
# -------------------------Scoreboard @ 415-------------------------
# Scoreboard writing 77  data into memory at address 34
# ASSERTION PASS: Signals are stable throughout the SETUP and ACCESS States
# ASSERTION PASS: FSM works as intended
# ASSERTION PASS: Signals are stable throughout the SETUP and ACCESS States
# ASSERTION PASS: Signals are stable throughout the SETUP and ACCESS States
# ASSERTION PASS: Signals are stable throughout the SETUP and ACCESS States
# -------------------------------- Passive monitor @465--------------------------------
# PRDATA:	0
# PREADY:	1
# PSLVERR:	0
# ---------------------Driver End of transaction @465---------------------
# PSELx = 0
# PENABLE = 0
# ---------------------Driver in IDLE State @465---------------------
# PSELx = 0
# PENABLE = 0
# ASSERTION PASS: Signals are stable throughout the SETUP and ACCESS States
# ---------------------Driver in SETUP State @475---------------------
# PSELx = 1
# PENABLE = 1
# PWRITE= 0
# PADDR = 34
# PSTRB = 3
# ASSERTION PASS: Signals are stable throughout the SETUP and ACCESS States
# ---------------------Driver in ACCESS State @485---------------------
# PSELx = 1
# PENABLE = 1
# PWRITE= 0
# PADDR = 34
# PWDATA = f4f0
# PSTRB = 3
# --------------------------------Active monitor @485--------------------------------
# PSELx:	1
# PENABLE:	1
# PWRITE:	0
# PADDR:	34
# PSTRB:	11
# ASSERTION PASS: Signals are stable throughout the SETUP and ACCESS States
# ASSERTION PASS: FSM works as intended
# ASSERTION PASS: Signals are stable throughout the SETUP and ACCESS States
# ASSERTION PASS: Signals are stable throughout the SETUP and ACCESS States
# ASSERTION PASS: Signals are stable throughout the SETUP and ACCESS States
# -------------------------------- Passive monitor @535--------------------------------
# PRDATA:	77
# PREADY:	1
# PSLVERR:	0
# -------------------------Scoreboard @ 535-------------------------
# Field		 Expected	Actual
# PRDATA	 77		77
# PSLVERR	     0		 0
# PREADY	     1		 1
# ********************************************TEST PASSED********************************************
# ---------------------Driver End of transaction @535---------------------
# PSELx = 0
# PENABLE = 0
#####################################################################################################
# ---------------------Driver in IDLE State @535---------------------
# PSELx = 0
# PENABLE = 0
# ASSERTION PASS: Signals are stable throughout the SETUP and ACCESS States
# ---------------------Driver in SETUP State @545---------------------
# PSELx = 1
# PENABLE = 0
# PWRITE= 1
# PADDR = 1a
# PWDATA = 7bf3
# PSTRB = 3
# ASSERTION PASS: Signals are stable throughout the SETUP and ACCESS States
# ---------------------Driver in ACCESS State @555---------------------
# PSELx = 1
# PENABLE = 1
# PWRITE= 1
# PADDR = 1a
# PWDATA = 7bf3
# PSTRB = 3
# --------------------------------Active monitor @555--------------------------------
# PSELx:	1
# PENABLE:	1
# PWRITE:	1
# PADDR:	1a
# PWDATA:	7bf3
# PSTRB:	11
# -------------------------Scoreboard @ 555-------------------------
# Scoreboard writing 7bf3  data into memory at address 1a
# ASSERTION PASS: Signals are stable throughout the SETUP and ACCESS States
# ASSERTION PASS: FSM works as intended
# ASSERTION PASS: Signals are stable throughout the SETUP and ACCESS States
# ASSERTION PASS: Signals are stable throughout the SETUP and ACCESS States
# ASSERTION PASS: Signals are stable throughout the SETUP and ACCESS States
# -------------------------------- Passive monitor @605--------------------------------
# PRDATA:	77
# PREADY:	1
# PSLVERR:	0
# ---------------------Driver End of transaction @605---------------------
# PSELx = 0
# PENABLE = 0
# ---------------------Driver in IDLE State @605---------------------
# PSELx = 0
# PENABLE = 0
# ASSERTION PASS: Signals are stable throughout the SETUP and ACCESS States
# ---------------------Driver in SETUP State @615---------------------
# PSELx = 1
# PENABLE = 1
# PWRITE= 0
# PADDR = 1a
# PSTRB = 3
# ASSERTION PASS: Signals are stable throughout the SETUP and ACCESS States
# ---------------------Driver in ACCESS State @625---------------------
# PSELx = 1
# PENABLE = 1
# PWRITE= 0
# PADDR = 1a
# PWDATA = 8435
# PSTRB = 3
# --------------------------------Active monitor @625--------------------------------
# PSELx:	1
# PENABLE:	1
# PWRITE:	0
# PADDR:	1a
# PSTRB:	11
# ASSERTION PASS: Signals are stable throughout the SETUP and ACCESS States
# ASSERTION PASS: FSM works as intended
# ASSERTION PASS: Signals are stable throughout the SETUP and ACCESS States
# ASSERTION PASS: Signals are stable throughout the SETUP and ACCESS States
# ASSERTION PASS: Signals are stable throughout the SETUP and ACCESS States
# -------------------------------- Passive monitor @675--------------------------------
# PRDATA:	7bf3
# PREADY:	1
# PSLVERR:	0
# -------------------------Scoreboard @ 675-------------------------
# Field		 Expected	Actual
# PRDATA	 7bf3		7bf3
# PSLVERR	     0		 0
# PREADY	     1		 1
# ********************************************TEST PASSED********************************************
# ---------------------Driver End of transaction @675---------------------
# PSELx = 0
# PENABLE = 0
#####################################################################################################
# ---------------------Driver in IDLE State @675---------------------
# PSELx = 0
# PENABLE = 0
# ASSERTION PASS: Signals are stable throughout the SETUP and ACCESS States
# ---------------------Driver in SETUP State @685---------------------
# PSELx = 1
# PENABLE = 1
# PWRITE= 1
# PADDR = 38
# PWDATA = 414a
# PSTRB = 2
# ASSERTION PASS: Signals are stable throughout the SETUP and ACCESS States
# ---------------------Driver in ACCESS State @695---------------------
# PSELx = 1
# PENABLE = 1
# PWRITE= 1
# PADDR = 38
# PWDATA = 414a
# PSTRB = 2
# --------------------------------Active monitor @695--------------------------------
# PSELx:	1
# PENABLE:	1
# PWRITE:	1
# PADDR:	38
# PWDATA:	414a
# PSTRB:	10
# -------------------------Scoreboard @ 695-------------------------
# Scoreboard writing 4100  data into memory at address 38
# ASSERTION PASS: Signals are stable throughout the SETUP and ACCESS States
# ASSERTION PASS: FSM works as intended
# ASSERTION PASS: Signals are stable throughout the SETUP and ACCESS States
# ASSERTION PASS: Signals are stable throughout the SETUP and ACCESS States
# ASSERTION PASS: Signals are stable throughout the SETUP and ACCESS States
# -------------------------------- Passive monitor @745--------------------------------
# PRDATA:	7bf3
# PREADY:	1
# PSLVERR:	0
# ---------------------Driver End of transaction @745---------------------
# PSELx = 0
# PENABLE = 0
# ---------------------Driver in IDLE State @745---------------------
# PSELx = 0
# PENABLE = 0
# ASSERTION PASS: Signals are stable throughout the SETUP and ACCESS States
# ---------------------Driver in SETUP State @755---------------------
# PSELx = 1
# PENABLE = 0
# PWRITE= 0
# PADDR = 38
# PSTRB = 1
# ASSERTION PASS: Signals are stable throughout the SETUP and ACCESS States
# ---------------------Driver in ACCESS State @765---------------------
# PSELx = 1
# PENABLE = 1
# PWRITE= 0
# PADDR = 38
# PWDATA = a7c7
# PSTRB = 1
# --------------------------------Active monitor @765--------------------------------
# PSELx:	1
# PENABLE:	1
# PWRITE:	0
# PADDR:	38
# PSTRB:	01
# ASSERTION PASS: Signals are stable throughout the SETUP and ACCESS States
# ASSERTION PASS: FSM works as intended
# ASSERTION PASS: Signals are stable throughout the SETUP and ACCESS States
# ASSERTION PASS: Signals are stable throughout the SETUP and ACCESS States
# ASSERTION PASS: Signals are stable throughout the SETUP and ACCESS States
# -------------------------------- Passive monitor @815--------------------------------
# PRDATA:	4100
# PREADY:	1
# PSLVERR:	0
# -------------------------Scoreboard @ 815-------------------------
# Field		 Expected	Actual
# PRDATA	 4100		4100
# PSLVERR	     0		 0
# PREADY	     1		 1
# ********************************************TEST PASSED********************************************
# ---------------------Driver End of transaction @815---------------------
# PSELx = 0
# PENABLE = 0
#####################################################################################################
# ---------------------Driver in IDLE State @815---------------------
# PSELx = 0
# PENABLE = 0
# ASSERTION PASS: Signals are stable throughout the SETUP and ACCESS States
# ---------------------Driver in SETUP State @825---------------------
# PSELx = 1
# PENABLE = 0
# PWRITE= 1
# PADDR = 35
# PWDATA = ae08
# PSTRB = 2
# ASSERTION PASS: Signals are stable throughout the SETUP and ACCESS States
# ---------------------Driver in ACCESS State @835---------------------
# PSELx = 1
# PENABLE = 1
# PWRITE= 1
# PADDR = 35
# PWDATA = ae08
# PSTRB = 2
# --------------------------------Active monitor @835--------------------------------
# PSELx:	1
# PENABLE:	1
# PWRITE:	1
# PADDR:	35
# PWDATA:	ae08
# PSTRB:	10
# -------------------------Scoreboard @ 835-------------------------
# Scoreboard writing ae00  data into memory at address 35
# ASSERTION PASS: Signals are stable throughout the SETUP and ACCESS States
# ASSERTION PASS: FSM works as intended
# ASSERTION PASS: Signals are stable throughout the SETUP and ACCESS States
# ASSERTION PASS: Signals are stable throughout the SETUP and ACCESS States
# ASSERTION PASS: Signals are stable throughout the SETUP and ACCESS States
# -------------------------------- Passive monitor @885--------------------------------
# PRDATA:	4100
# PREADY:	1
# PSLVERR:	0
# ---------------------Driver End of transaction @885---------------------
# PSELx = 0
# PENABLE = 0
# ---------------------Driver in IDLE State @885---------------------
# PSELx = 0
# PENABLE = 0
# ASSERTION PASS: Signals are stable throughout the SETUP and ACCESS States
# ---------------------Driver in SETUP State @895---------------------
# PSELx = 1
# PENABLE = 0
# PWRITE= 0
# PADDR = 35
# PSTRB = 3
# ASSERTION PASS: Signals are stable throughout the SETUP and ACCESS States
# ---------------------Driver in ACCESS State @905---------------------
# PSELx = 1
# PENABLE = 1
# PWRITE= 0
# PADDR = 35
# PWDATA = 1897
# PSTRB = 3
# --------------------------------Active monitor @905--------------------------------
# PSELx:	1
# PENABLE:	1
# PWRITE:	0
# PADDR:	35
# PSTRB:	11
# ASSERTION PASS: Signals are stable throughout the SETUP and ACCESS States
# ASSERTION PASS: FSM works as intended
# ASSERTION PASS: Signals are stable throughout the SETUP and ACCESS States
# ASSERTION PASS: Signals are stable throughout the SETUP and ACCESS States
# ASSERTION PASS: Signals are stable throughout the SETUP and ACCESS States
# -------------------------------- Passive monitor @955--------------------------------
# PRDATA:	ae00
# PREADY:	1
# PSLVERR:	0
# -------------------------Scoreboard @ 955-------------------------
# Field		 Expected	Actual
# PRDATA	 ae00		ae00
# PSLVERR	     0		 0
# PREADY	     1		 1
# ********************************************TEST PASSED********************************************
# ---------------------Driver End of transaction @955---------------------
# PSELx = 0
# PENABLE = 0
#####################################################################################################
# ---------------------Driver in IDLE State @955---------------------
# PSELx = 0
# PENABLE = 0
# ASSERTION PASS: Signals are stable throughout the SETUP and ACCESS States
# ---------------------Driver in SETUP State @965---------------------
# PSELx = 1
# PENABLE = 0
# PWRITE= 1
# PADDR = 4
# PWDATA = df2d
# PSTRB = 1
# ASSERTION PASS: Signals are stable throughout the SETUP and ACCESS States
# ---------------------Driver in ACCESS State @975---------------------
# PSELx = 1
# PENABLE = 1
# PWRITE= 1
# PADDR = 4
# PWDATA = df2d
# PSTRB = 1
# --------------------------------Active monitor @975--------------------------------
# PSELx:	1
# PENABLE:	1
# PWRITE:	1
# PADDR:	4
# PWDATA:	df2d
# PSTRB:	01
# -------------------------Scoreboard @ 975-------------------------
# Scoreboard writing 2d  data into memory at address 4
# ASSERTION PASS: Signals are stable throughout the SETUP and ACCESS States
# ASSERTION PASS: FSM works as intended
# ASSERTION PASS: Signals are stable throughout the SETUP and ACCESS States
# ASSERTION PASS: Signals are stable throughout the SETUP and ACCESS States
# ASSERTION PASS: Signals are stable throughout the SETUP and ACCESS States
# -------------------------------- Passive monitor @1025--------------------------------
# PRDATA:	ae00
# PREADY:	1
# PSLVERR:	0
# ---------------------Driver End of transaction @1025---------------------
# PSELx = 0
# PENABLE = 0
# ---------------------Driver in IDLE State @1025---------------------
# PSELx = 0
# PENABLE = 0
# ASSERTION PASS: Signals are stable throughout the SETUP and ACCESS States
# ---------------------Driver in SETUP State @1035---------------------
# PSELx = 1
# PENABLE = 1
# PWRITE= 0
# PADDR = 4
# PSTRB = 0
# ASSERTION PASS: Signals are stable throughout the SETUP and ACCESS States
# ---------------------Driver in ACCESS State @1045---------------------
# PSELx = 1
# PENABLE = 1
# PWRITE= 0
# PADDR = 4
# PWDATA = 5c88
# PSTRB = 0
# --------------------------------Active monitor @1045--------------------------------
# PSELx:	1
# PENABLE:	1
# PWRITE:	0
# PADDR:	4
# PSTRB:	00
# ASSERTION PASS: Signals are stable throughout the SETUP and ACCESS States
# ASSERTION PASS: FSM works as intended
# ASSERTION PASS: Signals are stable throughout the SETUP and ACCESS States
# ASSERTION PASS: Signals are stable throughout the SETUP and ACCESS States
# ASSERTION PASS: Signals are stable throughout the SETUP and ACCESS States
# -------------------------------- Passive monitor @1095--------------------------------
# PRDATA:	2d
# PREADY:	1
# PSLVERR:	0
# -------------------------Scoreboard @ 1095-------------------------
# Field		 Expected	Actual
# PRDATA	 2d		2d
# PSLVERR	     0		 0
# PREADY	     1		 1
# ********************************************TEST PASSED********************************************
# ---------------------Driver End of transaction @1095---------------------
# PSELx = 0
# PENABLE = 0
#####################################################################################################
# ---------------------Driver in IDLE State @1095---------------------
# PSELx = 0
# PENABLE = 0
# ASSERTION PASS: Signals are stable throughout the SETUP and ACCESS States
# ---------------------Driver in SETUP State @1105---------------------
# PSELx = 1
# PENABLE = 0
# PWRITE= 1
# PADDR = 5
# PWDATA = 4d63
# PSTRB = 3
# ASSERTION PASS: Signals are stable throughout the SETUP and ACCESS States
# ---------------------Driver in ACCESS State @1115---------------------
# PSELx = 1
# PENABLE = 1
# PWRITE= 1
# PADDR = 5
# PWDATA = 4d63
# PSTRB = 3
# --------------------------------Active monitor @1115--------------------------------
# PSELx:	1
# PENABLE:	1
# PWRITE:	1
# PADDR:	5
# PWDATA:	4d63
# PSTRB:	11
# -------------------------Scoreboard @ 1115-------------------------
# Scoreboard writing 4d63  data into memory at address 5
# ASSERTION PASS: Signals are stable throughout the SETUP and ACCESS States
# ASSERTION PASS: FSM works as intended
# ASSERTION PASS: Signals are stable throughout the SETUP and ACCESS States
# ASSERTION PASS: Signals are stable throughout the SETUP and ACCESS States
# ASSERTION PASS: Signals are stable throughout the SETUP and ACCESS States
# -------------------------------- Passive monitor @1165--------------------------------
# PRDATA:	2d
# PREADY:	1
# PSLVERR:	0
# ---------------------Driver End of transaction @1165---------------------
# PSELx = 0
# PENABLE = 0
# ---------------------Driver in IDLE State @1165---------------------
# PSELx = 0
# PENABLE = 0
# ASSERTION PASS: Signals are stable throughout the SETUP and ACCESS States
# ---------------------Driver in SETUP State @1175---------------------
# PSELx = 1
# PENABLE = 0
# PWRITE= 0
# PADDR = 5
# PSTRB = 1
# ASSERTION PASS: Signals are stable throughout the SETUP and ACCESS States
# ---------------------Driver in ACCESS State @1185---------------------
# PSELx = 1
# PENABLE = 1
# PWRITE= 0
# PADDR = 5
# PWDATA = 7f13
# PSTRB = 1
# --------------------------------Active monitor @1185--------------------------------
# PSELx:	1
# PENABLE:	1
# PWRITE:	0
# PADDR:	5
# PSTRB:	01
# ASSERTION PASS: Signals are stable throughout the SETUP and ACCESS States
# ASSERTION PASS: FSM works as intended
# ASSERTION PASS: Signals are stable throughout the SETUP and ACCESS States
# ASSERTION PASS: Signals are stable throughout the SETUP and ACCESS States
# ASSERTION PASS: Signals are stable throughout the SETUP and ACCESS States
# -------------------------------- Passive monitor @1235--------------------------------
# PRDATA:	4d63
# PREADY:	1
# PSLVERR:	0
# -------------------------Scoreboard @ 1235-------------------------
# Field		 Expected	Actual
# PRDATA	 4d63		4d63
# PSLVERR	     0		 0
# PREADY	     1		 1
# ********************************************TEST PASSED********************************************
# ---------------------Driver End of transaction @1235---------------------
# PSELx = 0
# PENABLE = 0
#####################################################################################################
# ---------------------Driver in IDLE State @1235---------------------
# PSELx = 0
# PENABLE = 0
# ASSERTION PASS: Signals are stable throughout the SETUP and ACCESS States
# ---------------------Driver in SETUP State @1245---------------------
# PSELx = 1
# PENABLE = 0
# PWRITE= 1
# PADDR = 2
# PWDATA = 73a7
# PSTRB = 2
# ASSERTION PASS: Signals are stable throughout the SETUP and ACCESS States
# ---------------------Driver in ACCESS State @1255---------------------
# PSELx = 1
# PENABLE = 1
# PWRITE= 1
# PADDR = 2
# PWDATA = 73a7
# PSTRB = 2
# --------------------------------Active monitor @1255--------------------------------
# PSELx:	1
# PENABLE:	1
# PWRITE:	1
# PADDR:	2
# PWDATA:	73a7
# PSTRB:	10
# -------------------------Scoreboard @ 1255-------------------------
# Scoreboard writing 7300  data into memory at address 2
# ASSERTION PASS: Signals are stable throughout the SETUP and ACCESS States
# ASSERTION PASS: FSM works as intended
# ASSERTION PASS: Signals are stable throughout the SETUP and ACCESS States
# ASSERTION PASS: Signals are stable throughout the SETUP and ACCESS States
# ASSERTION PASS: Signals are stable throughout the SETUP and ACCESS States
# -------------------------------- Passive monitor @1305--------------------------------
# PRDATA:	4d63
# PREADY:	1
# PSLVERR:	0
# ---------------------Driver End of transaction @1305---------------------
# PSELx = 0
# PENABLE = 0
# ---------------------Driver in IDLE State @1305---------------------
# PSELx = 0
# PENABLE = 0
# ASSERTION PASS: Signals are stable throughout the SETUP and ACCESS States
# ---------------------Driver in SETUP State @1315---------------------
# PSELx = 1
# PENABLE = 1
# PWRITE= 0
# PADDR = 2
# PSTRB = 2
# ASSERTION PASS: Signals are stable throughout the SETUP and ACCESS States
# ---------------------Driver in ACCESS State @1325---------------------
# PSELx = 1
# PENABLE = 1
# PWRITE= 0
# PADDR = 2
# PWDATA = 8885
# PSTRB = 2
# --------------------------------Active monitor @1325--------------------------------
# PSELx:	1
# PENABLE:	1
# PWRITE:	0
# PADDR:	2
# PSTRB:	10
# ASSERTION PASS: Signals are stable throughout the SETUP and ACCESS States
# ASSERTION PASS: FSM works as intended
# ASSERTION PASS: Signals are stable throughout the SETUP and ACCESS States
# ASSERTION PASS: Signals are stable throughout the SETUP and ACCESS States
# ASSERTION PASS: Signals are stable throughout the SETUP and ACCESS States
# -------------------------------- Passive monitor @1375--------------------------------
# PRDATA:	7300
# PREADY:	1
# PSLVERR:	0
# -------------------------Scoreboard @ 1375-------------------------
# Field		 Expected	Actual
# PRDATA	 7300		7300
# PSLVERR	     0		 0
# PREADY	     1		 1
# ********************************************TEST PASSED********************************************
# ---------------------Driver End of transaction @1375---------------------
# PSELx = 0
# PENABLE = 0
#####################################################################################################
# ---------------------Driver in IDLE State @1375---------------------
# PSELx = 0
# PENABLE = 0
# ASSERTION PASS: Signals are stable throughout the SETUP and ACCESS States
# ---------------------Driver in SETUP State @1385---------------------
# PSELx = 1
# PENABLE = 1
# PWRITE= 1
# PADDR = 13
# PWDATA = 58b8
# PSTRB = 2
# ASSERTION PASS: Signals are stable throughout the SETUP and ACCESS States
# ---------------------Driver in ACCESS State @1395---------------------
# PSELx = 1
# PENABLE = 1
# PWRITE= 1
# PADDR = 13
# PWDATA = 58b8
# PSTRB = 2
# --------------------------------Active monitor @1395--------------------------------
# PSELx:	1
# PENABLE:	1
# PWRITE:	1
# PADDR:	13
# PWDATA:	58b8
# PSTRB:	10
# -------------------------Scoreboard @ 1395-------------------------
# Scoreboard writing 5800  data into memory at address 13
# ASSERTION PASS: Signals are stable throughout the SETUP and ACCESS States
# ASSERTION PASS: FSM works as intended
# ASSERTION PASS: Signals are stable throughout the SETUP and ACCESS States
# ASSERTION PASS: Signals are stable throughout the SETUP and ACCESS States
# ASSERTION PASS: Signals are stable throughout the SETUP and ACCESS States
# -------------------------------- Passive monitor @1445--------------------------------
# PRDATA:	7300
# PREADY:	1
# PSLVERR:	0
# ---------------------Driver End of transaction @1445---------------------
# PSELx = 0
# PENABLE = 0
# ---------------------Driver in IDLE State @1445---------------------
# PSELx = 0
# PENABLE = 0
# ASSERTION PASS: Signals are stable throughout the SETUP and ACCESS States
# ---------------------Driver in SETUP State @1455---------------------
# PSELx = 1
# PENABLE = 1
# PWRITE= 0
# PADDR = 13
# PSTRB = 1
# ASSERTION PASS: Signals are stable throughout the SETUP and ACCESS States
# ---------------------Driver in ACCESS State @1465---------------------
# PSELx = 1
# PENABLE = 1
# PWRITE= 0
# PADDR = 13
# PWDATA = 6f80
# PSTRB = 1
# --------------------------------Active monitor @1465--------------------------------
# PSELx:	1
# PENABLE:	1
# PWRITE:	0
# PADDR:	13
# PSTRB:	01
# ASSERTION PASS: Signals are stable throughout the SETUP and ACCESS States
# ASSERTION PASS: FSM works as intended
# ASSERTION PASS: Signals are stable throughout the SETUP and ACCESS States
# ASSERTION PASS: Signals are stable throughout the SETUP and ACCESS States
# ASSERTION PASS: Signals are stable throughout the SETUP and ACCESS States
# -------------------------------- Passive monitor @1515--------------------------------
# PRDATA:	5800
# PREADY:	1
# PSLVERR:	0
# -------------------------Scoreboard @ 1515-------------------------
# Field		 Expected	Actual
# PRDATA	 5800		5800
# PSLVERR	     0		 0
# PREADY	     1		 1
# ********************************************TEST PASSED********************************************
# ---------------------Driver End of transaction @1515---------------------
# PSELx = 0
# PENABLE = 0
#####################################################################################################
# ---------------------Driver in IDLE State @1515---------------------
# PSELx = 0
# PENABLE = 0
# ASSERTION PASS: Signals are stable throughout the SETUP and ACCESS States
# ---------------------Driver in SETUP State @1525---------------------
# PSELx = 1
# PENABLE = 0
# PWRITE= 1
# PADDR = 30
# PWDATA = bbee
# PSTRB = 1
# ASSERTION PASS: Signals are stable throughout the SETUP and ACCESS States
# ---------------------Driver in ACCESS State @1535---------------------
# PSELx = 1
# PENABLE = 1
# PWRITE= 1
# PADDR = 30
# PWDATA = bbee
# PSTRB = 1
# --------------------------------Active monitor @1535--------------------------------
# PSELx:	1
# PENABLE:	1
# PWRITE:	1
# PADDR:	30
# PWDATA:	bbee
# PSTRB:	01
# -------------------------Scoreboard @ 1535-------------------------
# Scoreboard writing ee  data into memory at address 30
# ASSERTION PASS: Signals are stable throughout the SETUP and ACCESS States
# ASSERTION PASS: FSM works as intended
# ASSERTION PASS: Signals are stable throughout the SETUP and ACCESS States
# ASSERTION PASS: Signals are stable throughout the SETUP and ACCESS States
# ASSERTION PASS: Signals are stable throughout the SETUP and ACCESS States
# -------------------------------- Passive monitor @1585--------------------------------
# PRDATA:	5800
# PREADY:	1
# PSLVERR:	0
# ---------------------Driver End of transaction @1585---------------------
# PSELx = 0
# PENABLE = 0
# ---------------------Driver in IDLE State @1585---------------------
# PSELx = 0
# PENABLE = 0
# ASSERTION PASS: Signals are stable throughout the SETUP and ACCESS States
# ---------------------Driver in SETUP State @1595---------------------
# PSELx = 1
# PENABLE = 1
# PWRITE= 0
# PADDR = 30
# PSTRB = 1
# ASSERTION PASS: Signals are stable throughout the SETUP and ACCESS States
# ---------------------Driver in ACCESS State @1605---------------------
# PSELx = 1
# PENABLE = 1
# PWRITE= 0
# PADDR = 30
# PWDATA = 6b3e
# PSTRB = 1
# --------------------------------Active monitor @1605--------------------------------
# PSELx:	1
# PENABLE:	1
# PWRITE:	0
# PADDR:	30
# PSTRB:	01
# ASSERTION PASS: Signals are stable throughout the SETUP and ACCESS States
# ASSERTION PASS: FSM works as intended
# ASSERTION PASS: Signals are stable throughout the SETUP and ACCESS States
# ASSERTION PASS: Signals are stable throughout the SETUP and ACCESS States
# ASSERTION PASS: Signals are stable throughout the SETUP and ACCESS States
# -------------------------------- Passive monitor @1655--------------------------------
# PRDATA:	ee
# PREADY:	1
# PSLVERR:	0
# -------------------------Scoreboard @ 1655-------------------------
# Field		 Expected	Actual
# PRDATA	 ee		ee
# PSLVERR	     0		 0
# PREADY	     1		 1
# ********************************************TEST PASSED********************************************
# ---------------------Driver End of transaction @1655---------------------
# PSELx = 0
# PENABLE = 0
#####################################################################################################
# ---------------------Driver in IDLE State @1655---------------------
# PSELx = 0
# PENABLE = 0
# ASSERTION PASS: Signals are stable throughout the SETUP and ACCESS States
# ---------------------Driver in SETUP State @1665---------------------
# PSELx = 1
# PENABLE = 0
# PWRITE= 1
# PADDR = 2d
# PWDATA = 55a3
# PSTRB = 1
# ASSERTION PASS: Signals are stable throughout the SETUP and ACCESS States
# ---------------------Driver in ACCESS State @1675---------------------
# PSELx = 1
# PENABLE = 1
# PWRITE= 1
# PADDR = 2d
# PWDATA = 55a3
# PSTRB = 1
# --------------------------------Active monitor @1675--------------------------------
# PSELx:	1
# PENABLE:	1
# PWRITE:	1
# PADDR:	2d
# PWDATA:	55a3
# PSTRB:	01
# -------------------------Scoreboard @ 1675-------------------------
# Scoreboard writing a3  data into memory at address 2d
# ASSERTION PASS: Signals are stable throughout the SETUP and ACCESS States
# ASSERTION PASS: FSM works as intended
# ASSERTION PASS: Signals are stable throughout the SETUP and ACCESS States
# ASSERTION PASS: Signals are stable throughout the SETUP and ACCESS States
# ASSERTION PASS: Signals are stable throughout the SETUP and ACCESS States
# -------------------------------- Passive monitor @1725--------------------------------
# PRDATA:	ee
# PREADY:	1
# PSLVERR:	0
# ---------------------Driver End of transaction @1725---------------------
# PSELx = 0
# PENABLE = 0
# ---------------------Driver in IDLE State @1725---------------------
# PSELx = 0
# PENABLE = 0
# ASSERTION PASS: Signals are stable throughout the SETUP and ACCESS States
# ---------------------Driver in SETUP State @1735---------------------
# PSELx = 1
# PENABLE = 0
# PWRITE= 0
# PADDR = 2d
# PSTRB = 1
# ASSERTION PASS: Signals are stable throughout the SETUP and ACCESS States
# ---------------------Driver in ACCESS State @1745---------------------
# PSELx = 1
# PENABLE = 1
# PWRITE= 0
# PADDR = 2d
# PWDATA = 678b
# PSTRB = 1
# --------------------------------Active monitor @1745--------------------------------
# PSELx:	1
# PENABLE:	1
# PWRITE:	0
# PADDR:	2d
# PSTRB:	01
# ASSERTION PASS: Signals are stable throughout the SETUP and ACCESS States
# ASSERTION PASS: FSM works as intended
# ASSERTION PASS: Signals are stable throughout the SETUP and ACCESS States
# ASSERTION PASS: Signals are stable throughout the SETUP and ACCESS States
# ASSERTION PASS: Signals are stable throughout the SETUP and ACCESS States
# -------------------------------- Passive monitor @1795--------------------------------
# PRDATA:	a3
# PREADY:	1
# PSLVERR:	0
# -------------------------Scoreboard @ 1795-------------------------
# Field		 Expected	Actual
# PRDATA	 a3		a3
# PSLVERR	     0		 0
# PREADY	     1		 1
# ********************************************TEST PASSED********************************************
# ---------------------Driver End of transaction @1795---------------------
# PSELx = 0
# PENABLE = 0
#####################################################################################################
# ---------------------Driver in IDLE State @1795---------------------
# PSELx = 0
# PENABLE = 0
# ASSERTION PASS: Signals are stable throughout the SETUP and ACCESS States
# ---------------------Driver in SETUP State @1805---------------------
# PSELx = 1
# PENABLE = 1
# PWRITE= 1
# PADDR = 1e
# PWDATA = 9a94
# PSTRB = 2
# ASSERTION PASS: Signals are stable throughout the SETUP and ACCESS States
# ---------------------Driver in ACCESS State @1815---------------------
# PSELx = 1
# PENABLE = 1
# PWRITE= 1
# PADDR = 1e
# PWDATA = 9a94
# PSTRB = 2
# --------------------------------Active monitor @1815--------------------------------
# PSELx:	1
# PENABLE:	1
# PWRITE:	1
# PADDR:	1e
# PWDATA:	9a94
# PSTRB:	10
# -------------------------Scoreboard @ 1815-------------------------
# Scoreboard writing 9a00  data into memory at address 1e
# ASSERTION PASS: Signals are stable throughout the SETUP and ACCESS States
# ASSERTION PASS: FSM works as intended
# ASSERTION PASS: Signals are stable throughout the SETUP and ACCESS States
# ASSERTION PASS: Signals are stable throughout the SETUP and ACCESS States
# ASSERTION PASS: Signals are stable throughout the SETUP and ACCESS States
# -------------------------------- Passive monitor @1865--------------------------------
# PRDATA:	a3
# PREADY:	1
# PSLVERR:	0
# ---------------------Driver End of transaction @1865---------------------
# PSELx = 0
# PENABLE = 0
# ---------------------Driver in IDLE State @1865---------------------
# PSELx = 0
# PENABLE = 0
# ASSERTION PASS: Signals are stable throughout the SETUP and ACCESS States
# ---------------------Driver in SETUP State @1875---------------------
# PSELx = 1
# PENABLE = 1
# PWRITE= 0
# PADDR = 1e
# PSTRB = 0
# ASSERTION PASS: Signals are stable throughout the SETUP and ACCESS States
# ---------------------Driver in ACCESS State @1885---------------------
# PSELx = 1
# PENABLE = 1
# PWRITE= 0
# PADDR = 1e
# PWDATA = 589a
# PSTRB = 0
# --------------------------------Active monitor @1885--------------------------------
# PSELx:	1
# PENABLE:	1
# PWRITE:	0
# PADDR:	1e
# PSTRB:	00
# ASSERTION PASS: Signals are stable throughout the SETUP and ACCESS States
# ASSERTION PASS: FSM works as intended
# ASSERTION PASS: Signals are stable throughout the SETUP and ACCESS States
# ASSERTION PASS: Signals are stable throughout the SETUP and ACCESS States
# ASSERTION PASS: Signals are stable throughout the SETUP and ACCESS States
# -------------------------------- Passive monitor @1935--------------------------------
# PRDATA:	9a00
# PREADY:	1
# PSLVERR:	0
# -------------------------Scoreboard @ 1935-------------------------
# Field		 Expected	Actual
# PRDATA	 9a00		9a00
# PSLVERR	     0		 0
# PREADY	     1		 1
# ********************************************TEST PASSED********************************************
# ---------------------Driver End of transaction @1935---------------------
# PSELx = 0
# PENABLE = 0
#####################################################################################################
# ---------------------Driver in IDLE State @1935---------------------
# PSELx = 0
# PENABLE = 0
# ASSERTION PASS: Signals are stable throughout the SETUP and ACCESS States
# ---------------------Driver in SETUP State @1945---------------------
# PSELx = 1
# PENABLE = 1
# PWRITE= 1
# PADDR = f
# PWDATA = 11dc
# PSTRB = 3
# ASSERTION PASS: Signals are stable throughout the SETUP and ACCESS States
# ---------------------Driver in ACCESS State @1955---------------------
# PSELx = 1
# PENABLE = 1
# PWRITE= 1
# PADDR = f
# PWDATA = 11dc
# PSTRB = 3
# --------------------------------Active monitor @1955--------------------------------
# PSELx:	1
# PENABLE:	1
# PWRITE:	1
# PADDR:	f
# PWDATA:	11dc
# PSTRB:	11
# -------------------------Scoreboard @ 1955-------------------------
# Scoreboard writing 11dc  data into memory at address f
# ASSERTION PASS: Signals are stable throughout the SETUP and ACCESS States
# ASSERTION PASS: FSM works as intended
# ASSERTION PASS: Signals are stable throughout the SETUP and ACCESS States
# ASSERTION PASS: Signals are stable throughout the SETUP and ACCESS States
# ASSERTION PASS: Signals are stable throughout the SETUP and ACCESS States
# -------------------------------- Passive monitor @2005--------------------------------
# PRDATA:	9a00
# PREADY:	1
# PSLVERR:	0
# ---------------------Driver End of transaction @2005---------------------
# PSELx = 0
# PENABLE = 0
# ---------------------Driver in IDLE State @2005---------------------
# PSELx = 0
# PENABLE = 0
# ASSERTION PASS: Signals are stable throughout the SETUP and ACCESS States
# ---------------------Driver in SETUP State @2015---------------------
# PSELx = 1
# PENABLE = 0
# PWRITE= 0
# PADDR = f
# PSTRB = 2
# ASSERTION PASS: Signals are stable throughout the SETUP and ACCESS States
# ---------------------Driver in ACCESS State @2025---------------------
# PSELx = 1
# PENABLE = 1
# PWRITE= 0
# PADDR = f
# PWDATA = bd68
# PSTRB = 2
# --------------------------------Active monitor @2025--------------------------------
# PSELx:	1
# PENABLE:	1
# PWRITE:	0
# PADDR:	f
# PSTRB:	10
# ASSERTION PASS: Signals are stable throughout the SETUP and ACCESS States
# ASSERTION PASS: FSM works as intended
# ASSERTION PASS: Signals are stable throughout the SETUP and ACCESS States
# ASSERTION PASS: Signals are stable throughout the SETUP and ACCESS States
# ASSERTION PASS: Signals are stable throughout the SETUP and ACCESS States
# -------------------------------- Passive monitor @2075--------------------------------
# PRDATA:	11dc
# PREADY:	1
# PSLVERR:	0
# -------------------------Scoreboard @ 2075-------------------------
# Field		 Expected	Actual
# PRDATA	 11dc		11dc
# PSLVERR	     0		 0
# PREADY	     1		 1
# ********************************************TEST PASSED********************************************
# ---------------------Driver End of transaction @2075---------------------
# PSELx = 0
# PENABLE = 0
#####################################################################################################
# ---------------------Driver in IDLE State @2075---------------------
# PSELx = 0
# PENABLE = 0
# ASSERTION PASS: Signals are stable throughout the SETUP and ACCESS States
# ---------------------Driver in SETUP State @2085---------------------
# PSELx = 1
# PENABLE = 0
# PWRITE= 1
# PADDR = 6
# PWDATA = 2d4b
# PSTRB = 3
# ASSERTION PASS: Signals are stable throughout the SETUP and ACCESS States
# ---------------------Driver in ACCESS State @2095---------------------
# PSELx = 1
# PENABLE = 1
# PWRITE= 1
# PADDR = 6
# PWDATA = 2d4b
# PSTRB = 3
# --------------------------------Active monitor @2095--------------------------------
# PSELx:	1
# PENABLE:	1
# PWRITE:	1
# PADDR:	6
# PWDATA:	2d4b
# PSTRB:	11
# -------------------------Scoreboard @ 2095-------------------------
# Scoreboard writing 2d4b  data into memory at address 6
# ASSERTION PASS: Signals are stable throughout the SETUP and ACCESS States
# ASSERTION PASS: FSM works as intended
# ASSERTION PASS: Signals are stable throughout the SETUP and ACCESS States
# ASSERTION PASS: Signals are stable throughout the SETUP and ACCESS States
# ASSERTION PASS: Signals are stable throughout the SETUP and ACCESS States
# -------------------------------- Passive monitor @2145--------------------------------
# PRDATA:	11dc
# PREADY:	1
# PSLVERR:	0
# ---------------------Driver End of transaction @2145---------------------
# PSELx = 0
# PENABLE = 0
# ---------------------Driver in IDLE State @2145---------------------
# PSELx = 0
# PENABLE = 0
# ASSERTION PASS: Signals are stable throughout the SETUP and ACCESS States
# ---------------------Driver in SETUP State @2155---------------------
# PSELx = 1
# PENABLE = 0
# PWRITE= 0
# PADDR = 6
# PSTRB = 2
# ASSERTION PASS: Signals are stable throughout the SETUP and ACCESS States
# ---------------------Driver in ACCESS State @2165---------------------
# PSELx = 1
# PENABLE = 1
# PWRITE= 0
# PADDR = 6
# PWDATA = 3d9b
# PSTRB = 2
# --------------------------------Active monitor @2165--------------------------------
# PSELx:	1
# PENABLE:	1
# PWRITE:	0
# PADDR:	6
# PSTRB:	10
# ASSERTION PASS: Signals are stable throughout the SETUP and ACCESS States
# ASSERTION PASS: FSM works as intended
# ASSERTION PASS: Signals are stable throughout the SETUP and ACCESS States
# ASSERTION PASS: Signals are stable throughout the SETUP and ACCESS States
# ASSERTION PASS: Signals are stable throughout the SETUP and ACCESS States
# -------------------------------- Passive monitor @2215--------------------------------
# PRDATA:	2d4b
# PREADY:	1
# PSLVERR:	0
# -------------------------Scoreboard @ 2215-------------------------
# Field		 Expected	Actual
# PRDATA	 2d4b		2d4b
# PSLVERR	     0		 0
# PREADY	     1		 1
# ********************************************TEST PASSED********************************************
# ---------------------Driver End of transaction @2215---------------------
# PSELx = 0
# PENABLE = 0
#####################################################################################################
# ---------------------Driver in IDLE State @2215---------------------
# PSELx = 0
# PENABLE = 0
# ASSERTION PASS: Signals are stable throughout the SETUP and ACCESS States
# ---------------------Driver in SETUP State @2225---------------------
# PSELx = 1
# PENABLE = 0
# PWRITE= 1
# PADDR = 13
# PWDATA = 968
# PSTRB = 1
# ASSERTION PASS: Signals are stable throughout the SETUP and ACCESS States
# ---------------------Driver in ACCESS State @2235---------------------
# PSELx = 1
# PENABLE = 1
# PWRITE= 1
# PADDR = 13
# PWDATA = 968
# PSTRB = 1
# --------------------------------Active monitor @2235--------------------------------
# PSELx:	1
# PENABLE:	1
# PWRITE:	1
# PADDR:	13
# PWDATA:	968
# PSTRB:	01
# -------------------------Scoreboard @ 2235-------------------------
# Scoreboard writing 5868  data into memory at address 13
# ASSERTION PASS: Signals are stable throughout the SETUP and ACCESS States
# ASSERTION PASS: FSM works as intended
# ASSERTION PASS: Signals are stable throughout the SETUP and ACCESS States
# ASSERTION PASS: Signals are stable throughout the SETUP and ACCESS States
# ASSERTION PASS: Signals are stable throughout the SETUP and ACCESS States
# -------------------------------- Passive monitor @2285--------------------------------
# PRDATA:	2d4b
# PREADY:	1
# PSLVERR:	0
# ---------------------Driver End of transaction @2285---------------------
# PSELx = 0
# PENABLE = 0
# ---------------------Driver in IDLE State @2285---------------------
# PSELx = 0
# PENABLE = 0
# ASSERTION PASS: Signals are stable throughout the SETUP and ACCESS States
# ---------------------Driver in SETUP State @2295---------------------
# PSELx = 1
# PENABLE = 1
# PWRITE= 0
# PADDR = 13
# PSTRB = 2
# ASSERTION PASS: Signals are stable throughout the SETUP and ACCESS States
# ---------------------Driver in ACCESS State @2305---------------------
# PSELx = 1
# PENABLE = 1
# PWRITE= 0
# PADDR = 13
# PWDATA = 1c79
# PSTRB = 2
# --------------------------------Active monitor @2305--------------------------------
# PSELx:	1
# PENABLE:	1
# PWRITE:	0
# PADDR:	13
# PSTRB:	10
# ASSERTION PASS: Signals are stable throughout the SETUP and ACCESS States
# ASSERTION PASS: FSM works as intended
# ASSERTION PASS: Signals are stable throughout the SETUP and ACCESS States
# ASSERTION PASS: Signals are stable throughout the SETUP and ACCESS States
# ASSERTION PASS: Signals are stable throughout the SETUP and ACCESS States
# -------------------------------- Passive monitor @2355--------------------------------
# PRDATA:	5868
# PREADY:	1
# PSLVERR:	0
# -------------------------Scoreboard @ 2355-------------------------
# Field		 Expected	Actual
# PRDATA	 5868		5868
# PSLVERR	     0		 0
# PREADY	     1		 1
# ********************************************TEST PASSED********************************************
# ---------------------Driver End of transaction @2355---------------------
# PSELx = 0
# PENABLE = 0
#####################################################################################################
# ---------------------Driver in IDLE State @2355---------------------
# PSELx = 0
# PENABLE = 0
# ASSERTION PASS: Signals are stable throughout the SETUP and ACCESS States
# ---------------------Driver in SETUP State @2365---------------------
# PSELx = 1
# PENABLE = 1
# PWRITE= 1
# PADDR = 25
# PWDATA = 6b9f
# PSTRB = 0
# ASSERTION PASS: Signals are stable throughout the SETUP and ACCESS States
# ---------------------Driver in ACCESS State @2375---------------------
# PSELx = 1
# PENABLE = 1
# PWRITE= 1
# PADDR = 25
# PWDATA = 6b9f
# PSTRB = 0
# --------------------------------Active monitor @2375--------------------------------
# PSELx:	1
# PENABLE:	1
# PWRITE:	1
# PADDR:	25
# PWDATA:	6b9f
# PSTRB:	00
# -------------------------Scoreboard @ 2375-------------------------
# Scoreboard writing 0  data into memory at address 25
# ASSERTION PASS: Signals are stable throughout the SETUP and ACCESS States
# ASSERTION PASS: FSM works as intended
# ASSERTION PASS: Signals are stable throughout the SETUP and ACCESS States
# ASSERTION PASS: Signals are stable throughout the SETUP and ACCESS States
# ASSERTION PASS: Signals are stable throughout the SETUP and ACCESS States
# -------------------------------- Passive monitor @2425--------------------------------
# PRDATA:	5868
# PREADY:	1
# PSLVERR:	0
# ---------------------Driver End of transaction @2425---------------------
# PSELx = 0
# PENABLE = 0
# ---------------------Driver in IDLE State @2425---------------------
# PSELx = 0
# PENABLE = 0
# ASSERTION PASS: Signals are stable throughout the SETUP and ACCESS States
# ---------------------Driver in SETUP State @2435---------------------
# PSELx = 1
# PENABLE = 1
# PWRITE= 0
# PADDR = 25
# PSTRB = 0
# ASSERTION PASS: Signals are stable throughout the SETUP and ACCESS States
# ---------------------Driver in ACCESS State @2445---------------------
# PSELx = 1
# PENABLE = 1
# PWRITE= 0
# PADDR = 25
# PWDATA = cc
# PSTRB = 0
# --------------------------------Active monitor @2445--------------------------------
# PSELx:	1
# PENABLE:	1
# PWRITE:	0
# PADDR:	25
# PSTRB:	00
# ASSERTION PASS: Signals are stable throughout the SETUP and ACCESS States
# ASSERTION PASS: FSM works as intended
# ASSERTION PASS: Signals are stable throughout the SETUP and ACCESS States
# ASSERTION PASS: Signals are stable throughout the SETUP and ACCESS States
# ASSERTION PASS: Signals are stable throughout the SETUP and ACCESS States
# -------------------------------- Passive monitor @2495--------------------------------
# PRDATA:	0
# PREADY:	1
# PSLVERR:	0
# -------------------------Scoreboard @ 2495-------------------------
# Field		 Expected	Actual
# PRDATA	 0		0
# PSLVERR	     0		 0
# PREADY	     1		 1
# ********************************************TEST PASSED********************************************
# ---------------------Driver End of transaction @2495---------------------
# PSELx = 0
# PENABLE = 0
#####################################################################################################
# ---------------------Driver in IDLE State @2495---------------------
# PSELx = 0
# PENABLE = 0
# ASSERTION PASS: Signals are stable throughout the SETUP and ACCESS States
# ---------------------Driver in SETUP State @2505---------------------
# PSELx = 1
# PENABLE = 1
# PWRITE= 1
# PADDR = 25
# PWDATA = 4081
# PSTRB = 0
# ASSERTION PASS: Signals are stable throughout the SETUP and ACCESS States
# ---------------------Driver in ACCESS State @2515---------------------
# PSELx = 1
# PENABLE = 1
# PWRITE= 1
# PADDR = 25
# PWDATA = 4081
# PSTRB = 0
# --------------------------------Active monitor @2515--------------------------------
# PSELx:	1
# PENABLE:	1
# PWRITE:	1
# PADDR:	25
# PWDATA:	4081
# PSTRB:	00
# -------------------------Scoreboard @ 2515-------------------------
# Scoreboard writing 0  data into memory at address 25
# ASSERTION PASS: Signals are stable throughout the SETUP and ACCESS States
# ASSERTION PASS: FSM works as intended
# ASSERTION PASS: Signals are stable throughout the SETUP and ACCESS States
# ASSERTION PASS: Signals are stable throughout the SETUP and ACCESS States
# ASSERTION PASS: Signals are stable throughout the SETUP and ACCESS States
# -------------------------------- Passive monitor @2565--------------------------------
# PRDATA:	0
# PREADY:	1
# PSLVERR:	0
# ---------------------Driver End of transaction @2565---------------------
# PSELx = 0
# PENABLE = 0
# ---------------------Driver in IDLE State @2565---------------------
# PSELx = 0
# PENABLE = 0
# ASSERTION PASS: Signals are stable throughout the SETUP and ACCESS States
# ---------------------Driver in SETUP State @2575---------------------
# PSELx = 1
# PENABLE = 0
# PWRITE= 0
# PADDR = 25
# PSTRB = 1
# ASSERTION PASS: Signals are stable throughout the SETUP and ACCESS States
# ---------------------Driver in ACCESS State @2585---------------------
# PSELx = 1
# PENABLE = 1
# PWRITE= 0
# PADDR = 25
# PWDATA = 4222
# PSTRB = 1
# --------------------------------Active monitor @2585--------------------------------
# PSELx:	1
# PENABLE:	1
# PWRITE:	0
# PADDR:	25
# PSTRB:	01
# ASSERTION PASS: Signals are stable throughout the SETUP and ACCESS States
# ASSERTION PASS: FSM works as intended
# ASSERTION PASS: Signals are stable throughout the SETUP and ACCESS States
# ASSERTION PASS: Signals are stable throughout the SETUP and ACCESS States
# ASSERTION PASS: Signals are stable throughout the SETUP and ACCESS States
# -------------------------------- Passive monitor @2635--------------------------------
# PRDATA:	0
# PREADY:	1
# PSLVERR:	0
# -------------------------Scoreboard @ 2635-------------------------
# Field		 Expected	Actual
# PRDATA	 0		0
# PSLVERR	     0		 0
# PREADY	     1		 1
# ********************************************TEST PASSED********************************************
# ---------------------Driver End of transaction @2635---------------------
# PSELx = 0
# PENABLE = 0
#####################################################################################################
# ---------------------Driver in IDLE State @2635---------------------
# PSELx = 0
# PENABLE = 0
# ASSERTION PASS: Signals are stable throughout the SETUP and ACCESS States
# ---------------------Driver in SETUP State @2645---------------------
# PSELx = 1
# PENABLE = 0
# PWRITE= 1
# PADDR = 13
# PWDATA = 657b
# PSTRB = 2
# ASSERTION PASS: Signals are stable throughout the SETUP and ACCESS States
# ---------------------Driver in ACCESS State @2655---------------------
# PSELx = 1
# PENABLE = 1
# PWRITE= 1
# PADDR = 13
# PWDATA = 657b
# PSTRB = 2
# --------------------------------Active monitor @2655--------------------------------
# PSELx:	1
# PENABLE:	1
# PWRITE:	1
# PADDR:	13
# PWDATA:	657b
# PSTRB:	10
# -------------------------Scoreboard @ 2655-------------------------
# Scoreboard writing 6568  data into memory at address 13
# ASSERTION PASS: Signals are stable throughout the SETUP and ACCESS States
# ASSERTION PASS: FSM works as intended
# ASSERTION PASS: Signals are stable throughout the SETUP and ACCESS States
# ASSERTION PASS: Signals are stable throughout the SETUP and ACCESS States
# ASSERTION PASS: Signals are stable throughout the SETUP and ACCESS States
# -------------------------------- Passive monitor @2705--------------------------------
# PRDATA:	0
# PREADY:	1
# PSLVERR:	0
# ---------------------Driver End of transaction @2705---------------------
# PSELx = 0
# PENABLE = 0
# ---------------------Driver in IDLE State @2705---------------------
# PSELx = 0
# PENABLE = 0
# ASSERTION PASS: Signals are stable throughout the SETUP and ACCESS States
# ---------------------Driver in SETUP State @2715---------------------
# PSELx = 1
# PENABLE = 1
# PWRITE= 0
# PADDR = 13
# PSTRB = 1
# ASSERTION PASS: Signals are stable throughout the SETUP and ACCESS States
# ---------------------Driver in ACCESS State @2725---------------------
# PSELx = 1
# PENABLE = 1
# PWRITE= 0
# PADDR = 13
# PWDATA = 563a
# PSTRB = 1
# --------------------------------Active monitor @2725--------------------------------
# PSELx:	1
# PENABLE:	1
# PWRITE:	0
# PADDR:	13
# PSTRB:	01
# ASSERTION PASS: Signals are stable throughout the SETUP and ACCESS States
# ASSERTION PASS: FSM works as intended
# ASSERTION PASS: Signals are stable throughout the SETUP and ACCESS States
# ASSERTION PASS: Signals are stable throughout the SETUP and ACCESS States
# ASSERTION PASS: Signals are stable throughout the SETUP and ACCESS States
# -------------------------------- Passive monitor @2775--------------------------------
# PRDATA:	6568
# PREADY:	1
# PSLVERR:	0
# -------------------------Scoreboard @ 2775-------------------------
# Field		 Expected	Actual
# PRDATA	 6568		6568
# PSLVERR	     0		 0
# PREADY	     1		 1
# ********************************************TEST PASSED********************************************
# ---------------------Driver End of transaction @2775---------------------
# PSELx = 0
# PENABLE = 0
#####################################################################################################
# ---------------------Driver in IDLE State @2775---------------------
# PSELx = 0
# PENABLE = 0
# ASSERTION PASS: Signals are stable throughout the SETUP and ACCESS States
# ---------------------Driver in SETUP State @2785---------------------
# PSELx = 1
# PENABLE = 0
# PWRITE= 1
# PADDR = 39
# PWDATA = 45c3
# PSTRB = 3
# ASSERTION PASS: Signals are stable throughout the SETUP and ACCESS States
# ---------------------Driver in ACCESS State @2795---------------------
# PSELx = 1
# PENABLE = 1
# PWRITE= 1
# PADDR = 39
# PWDATA = 45c3
# PSTRB = 3
# --------------------------------Active monitor @2795--------------------------------
# PSELx:	1
# PENABLE:	1
# PWRITE:	1
# PADDR:	39
# PWDATA:	45c3
# PSTRB:	11
# -------------------------Scoreboard @ 2795-------------------------
# Scoreboard writing 45c3  data into memory at address 39
# ASSERTION PASS: Signals are stable throughout the SETUP and ACCESS States
# ASSERTION PASS: FSM works as intended
# ASSERTION PASS: Signals are stable throughout the SETUP and ACCESS States
# ASSERTION PASS: Signals are stable throughout the SETUP and ACCESS States
# ASSERTION PASS: Signals are stable throughout the SETUP and ACCESS States
# -------------------------------- Passive monitor @2845--------------------------------
# PRDATA:	6568
# PREADY:	1
# PSLVERR:	0
# ---------------------Driver End of transaction @2845---------------------
# PSELx = 0
# PENABLE = 0
# ---------------------Driver in IDLE State @2845---------------------
# PSELx = 0
# PENABLE = 0
# ASSERTION PASS: Signals are stable throughout the SETUP and ACCESS States
# ---------------------Driver in SETUP State @2855---------------------
# PSELx = 1
# PENABLE = 0
# PWRITE= 0
# PADDR = 39
# PSTRB = 0
# ASSERTION PASS: Signals are stable throughout the SETUP and ACCESS States
# ---------------------Driver in ACCESS State @2865---------------------
# PSELx = 1
# PENABLE = 1
# PWRITE= 0
# PADDR = 39
# PWDATA = a0e2
# PSTRB = 0
# --------------------------------Active monitor @2865--------------------------------
# PSELx:	1
# PENABLE:	1
# PWRITE:	0
# PADDR:	39
# PSTRB:	00
# ASSERTION PASS: Signals are stable throughout the SETUP and ACCESS States
# ASSERTION PASS: FSM works as intended
# ASSERTION PASS: Signals are stable throughout the SETUP and ACCESS States
# ASSERTION PASS: Signals are stable throughout the SETUP and ACCESS States
# ASSERTION PASS: Signals are stable throughout the SETUP and ACCESS States
# -------------------------------- Passive monitor @2915--------------------------------
# PRDATA:	45c3
# PREADY:	1
# PSLVERR:	0
# -------------------------Scoreboard @ 2915-------------------------
# Field		 Expected	Actual
# PRDATA	 45c3		45c3
# PSLVERR	     0		 0
# PREADY	     1		 1
# ********************************************TEST PASSED********************************************
# ---------------------Driver End of transaction @2915---------------------
# PSELx = 0
# PENABLE = 0
#####################################################################################################
# ---------------------Driver in IDLE State @2915---------------------
# PSELx = 0
# PENABLE = 0
# ASSERTION PASS: Signals are stable throughout the SETUP and ACCESS States
# ---------------------Driver in SETUP State @2925---------------------
# PSELx = 1
# PENABLE = 0
# PWRITE= 1
# PADDR = 32
# PWDATA = afc5
# PSTRB = 2
# ASSERTION PASS: Signals are stable throughout the SETUP and ACCESS States
# ---------------------Driver in ACCESS State @2935---------------------
# PSELx = 1
# PENABLE = 1
# PWRITE= 1
# PADDR = 32
# PWDATA = afc5
# PSTRB = 2
# --------------------------------Active monitor @2935--------------------------------
# PSELx:	1
# PENABLE:	1
# PWRITE:	1
# PADDR:	32
# PWDATA:	afc5
# PSTRB:	10
# -------------------------Scoreboard @ 2935-------------------------
# Scoreboard writing af00  data into memory at address 32
# ASSERTION PASS: Signals are stable throughout the SETUP and ACCESS States
# ASSERTION PASS: FSM works as intended
# ASSERTION PASS: Signals are stable throughout the SETUP and ACCESS States
# ASSERTION PASS: Signals are stable throughout the SETUP and ACCESS States
# ASSERTION PASS: Signals are stable throughout the SETUP and ACCESS States
# -------------------------------- Passive monitor @2985--------------------------------
# PRDATA:	45c3
# PREADY:	1
# PSLVERR:	0
# ---------------------Driver End of transaction @2985---------------------
# PSELx = 0
# PENABLE = 0
# ---------------------Driver in IDLE State @2985---------------------
# PSELx = 0
# PENABLE = 0
# ASSERTION PASS: Signals are stable throughout the SETUP and ACCESS States
# ---------------------Driver in SETUP State @2995---------------------
# PSELx = 1
# PENABLE = 1
# PWRITE= 0
# PADDR = 32
# PSTRB = 1
# ASSERTION PASS: Signals are stable throughout the SETUP and ACCESS States
# ---------------------Driver in ACCESS State @3005---------------------
# PSELx = 1
# PENABLE = 1
# PWRITE= 0
# PADDR = 32
# PWDATA = 8f6c
# PSTRB = 1
# --------------------------------Active monitor @3005--------------------------------
# PSELx:	1
# PENABLE:	1
# PWRITE:	0
# PADDR:	32
# PSTRB:	01
# ASSERTION PASS: Signals are stable throughout the SETUP and ACCESS States
# ASSERTION PASS: FSM works as intended
# ASSERTION PASS: Signals are stable throughout the SETUP and ACCESS States
# ASSERTION PASS: Signals are stable throughout the SETUP and ACCESS States
# ASSERTION PASS: Signals are stable throughout the SETUP and ACCESS States
# -------------------------------- Passive monitor @3055--------------------------------
# PRDATA:	af00
# PREADY:	1
# PSLVERR:	0
# -------------------------Scoreboard @ 3055-------------------------
# Field		 Expected	Actual
# PRDATA	 af00		af00
# PSLVERR	     0		 0
# PREADY	     1		 1
# ********************************************TEST PASSED********************************************
# ---------------------Driver End of transaction @3055---------------------
# PSELx = 0
# PENABLE = 0
#####################################################################################################
# ---------------------Driver in IDLE State @3055---------------------
# PSELx = 0
# PENABLE = 0
# ASSERTION PASS: Signals are stable throughout the SETUP and ACCESS States
# ---------------------Driver in SETUP State @3065---------------------
# PSELx = 1
# PENABLE = 0
# PWRITE= 1
# PADDR = 28
# PWDATA = d53
# PSTRB = 0
# ASSERTION PASS: Signals are stable throughout the SETUP and ACCESS States
# ---------------------Driver in ACCESS State @3075---------------------
# PSELx = 1
# PENABLE = 1
# PWRITE= 1
# PADDR = 28
# PWDATA = d53
# PSTRB = 0
# --------------------------------Active monitor @3075--------------------------------
# PSELx:	1
# PENABLE:	1
# PWRITE:	1
# PADDR:	28
# PWDATA:	d53
# PSTRB:	00
# -------------------------Scoreboard @ 3075-------------------------
# Scoreboard writing 0  data into memory at address 28
# ASSERTION PASS: Signals are stable throughout the SETUP and ACCESS States
# ASSERTION PASS: FSM works as intended
# ASSERTION PASS: Signals are stable throughout the SETUP and ACCESS States
# ASSERTION PASS: Signals are stable throughout the SETUP and ACCESS States
# ASSERTION PASS: Signals are stable throughout the SETUP and ACCESS States
# -------------------------------- Passive monitor @3125--------------------------------
# PRDATA:	af00
# PREADY:	1
# PSLVERR:	0
# ---------------------Driver End of transaction @3125---------------------
# PSELx = 0
# PENABLE = 0
# ---------------------Driver in IDLE State @3125---------------------
# PSELx = 0
# PENABLE = 0
# ASSERTION PASS: Signals are stable throughout the SETUP and ACCESS States
# ---------------------Driver in SETUP State @3135---------------------
# PSELx = 1
# PENABLE = 1
# PWRITE= 0
# PADDR = 28
# PSTRB = 3
# ASSERTION PASS: Signals are stable throughout the SETUP and ACCESS States
# ---------------------Driver in ACCESS State @3145---------------------
# PSELx = 1
# PENABLE = 1
# PWRITE= 0
# PADDR = 28
# PWDATA = 4b09
# PSTRB = 3
# --------------------------------Active monitor @3145--------------------------------
# PSELx:	1
# PENABLE:	1
# PWRITE:	0
# PADDR:	28
# PSTRB:	11
# ASSERTION PASS: Signals are stable throughout the SETUP and ACCESS States
# ASSERTION PASS: FSM works as intended
# ASSERTION PASS: Signals are stable throughout the SETUP and ACCESS States
# ASSERTION PASS: Signals are stable throughout the SETUP and ACCESS States
# ASSERTION PASS: Signals are stable throughout the SETUP and ACCESS States
# -------------------------------- Passive monitor @3195--------------------------------
# PRDATA:	0
# PREADY:	1
# PSLVERR:	0
# -------------------------Scoreboard @ 3195-------------------------
# Field		 Expected	Actual
# PRDATA	 0		0
# PSLVERR	     0		 0
# PREADY	     1		 1
# ********************************************TEST PASSED********************************************
# ---------------------Driver End of transaction @3195---------------------
# PSELx = 0
# PENABLE = 0
#####################################################################################################
# ---------------------Driver in IDLE State @3195---------------------
# PSELx = 0
# PENABLE = 0
# ASSERTION PASS: Signals are stable throughout the SETUP and ACCESS States
# ---------------------Driver in SETUP State @3205---------------------
# PSELx = 1
# PENABLE = 0
# PWRITE= 1
# PADDR = 25
# PWDATA = 563
# PSTRB = 2
# ASSERTION PASS: Signals are stable throughout the SETUP and ACCESS States
# ---------------------Driver in ACCESS State @3215---------------------
# PSELx = 1
# PENABLE = 1
# PWRITE= 1
# PADDR = 25
# PWDATA = 563
# PSTRB = 2
# --------------------------------Active monitor @3215--------------------------------
# PSELx:	1
# PENABLE:	1
# PWRITE:	1
# PADDR:	25
# PWDATA:	563
# PSTRB:	10
# -------------------------Scoreboard @ 3215-------------------------
# Scoreboard writing 500  data into memory at address 25
# ASSERTION PASS: Signals are stable throughout the SETUP and ACCESS States
# ASSERTION PASS: FSM works as intended
# ASSERTION PASS: Signals are stable throughout the SETUP and ACCESS States
# ASSERTION PASS: Signals are stable throughout the SETUP and ACCESS States
# ASSERTION PASS: Signals are stable throughout the SETUP and ACCESS States
# -------------------------------- Passive monitor @3265--------------------------------
# PRDATA:	0
# PREADY:	1
# PSLVERR:	0
# ---------------------Driver End of transaction @3265---------------------
# PSELx = 0
# PENABLE = 0
# ---------------------Driver in IDLE State @3265---------------------
# PSELx = 0
# PENABLE = 0
# ASSERTION PASS: Signals are stable throughout the SETUP and ACCESS States
# ---------------------Driver in SETUP State @3275---------------------
# PSELx = 1
# PENABLE = 0
# PWRITE= 0
# PADDR = 25
# PSTRB = 3
# ASSERTION PASS: Signals are stable throughout the SETUP and ACCESS States
# ---------------------Driver in ACCESS State @3285---------------------
# PSELx = 1
# PENABLE = 1
# PWRITE= 0
# PADDR = 25
# PWDATA = 653a
# PSTRB = 3
# --------------------------------Active monitor @3285--------------------------------
# PSELx:	1
# PENABLE:	1
# PWRITE:	0
# PADDR:	25
# PSTRB:	11
# ASSERTION PASS: Signals are stable throughout the SETUP and ACCESS States
# ASSERTION PASS: FSM works as intended
# ASSERTION PASS: Signals are stable throughout the SETUP and ACCESS States
# ASSERTION PASS: Signals are stable throughout the SETUP and ACCESS States
# ASSERTION PASS: Signals are stable throughout the SETUP and ACCESS States
# -------------------------------- Passive monitor @3335--------------------------------
# PRDATA:	500
# PREADY:	1
# PSLVERR:	0
# -------------------------Scoreboard @ 3335-------------------------
# Field		 Expected	Actual
# PRDATA	 500		500
# PSLVERR	     0		 0
# PREADY	     1		 1
# ********************************************TEST PASSED********************************************
# ---------------------Driver End of transaction @3335---------------------
# PSELx = 0
# PENABLE = 0
#####################################################################################################
# ---------------------Driver in IDLE State @3335---------------------
# PSELx = 0
# PENABLE = 0
# ASSERTION PASS: Signals are stable throughout the SETUP and ACCESS States
# ---------------------Driver in SETUP State @3345---------------------
# PSELx = 1
# PENABLE = 0
# PWRITE= 1
# PADDR = 22
# PWDATA = e4fc
# PSTRB = 2
# ASSERTION PASS: Signals are stable throughout the SETUP and ACCESS States
# ---------------------Driver in ACCESS State @3355---------------------
# PSELx = 1
# PENABLE = 1
# PWRITE= 1
# PADDR = 22
# PWDATA = e4fc
# PSTRB = 2
# --------------------------------Active monitor @3355--------------------------------
# PSELx:	1
# PENABLE:	1
# PWRITE:	1
# PADDR:	22
# PWDATA:	e4fc
# PSTRB:	10
# -------------------------Scoreboard @ 3355-------------------------
# Scoreboard writing e400  data into memory at address 22
# ASSERTION PASS: Signals are stable throughout the SETUP and ACCESS States
# ASSERTION PASS: FSM works as intended
# ASSERTION PASS: Signals are stable throughout the SETUP and ACCESS States
# ASSERTION PASS: Signals are stable throughout the SETUP and ACCESS States
# ASSERTION PASS: Signals are stable throughout the SETUP and ACCESS States
# -------------------------------- Passive monitor @3405--------------------------------
# PRDATA:	500
# PREADY:	1
# PSLVERR:	0
# ---------------------Driver End of transaction @3405---------------------
# PSELx = 0
# PENABLE = 0
# ---------------------Driver in IDLE State @3405---------------------
# PSELx = 0
# PENABLE = 0
# ASSERTION PASS: Signals are stable throughout the SETUP and ACCESS States
# ---------------------Driver in SETUP State @3415---------------------
# PSELx = 1
# PENABLE = 0
# PWRITE= 0
# PADDR = 22
# PSTRB = 2
# ASSERTION PASS: Signals are stable throughout the SETUP and ACCESS States
# ---------------------Driver in ACCESS State @3425---------------------
# PSELx = 1
# PENABLE = 1
# PWRITE= 0
# PADDR = 22
# PWDATA = 89bb
# PSTRB = 2
# --------------------------------Active monitor @3425--------------------------------
# PSELx:	1
# PENABLE:	1
# PWRITE:	0
# PADDR:	22
# PSTRB:	10
# ASSERTION PASS: Signals are stable throughout the SETUP and ACCESS States
# ASSERTION PASS: FSM works as intended
# ASSERTION PASS: Signals are stable throughout the SETUP and ACCESS States
# ASSERTION PASS: Signals are stable throughout the SETUP and ACCESS States
# ASSERTION PASS: Signals are stable throughout the SETUP and ACCESS States
# -------------------------------- Passive monitor @3475--------------------------------
# PRDATA:	e400
# PREADY:	1
# PSLVERR:	0
# -------------------------Scoreboard @ 3475-------------------------
# Field		 Expected	Actual
# PRDATA	 e400		e400
# PSLVERR	     0		 0
# PREADY	     1		 1
# ********************************************TEST PASSED********************************************
# ---------------------Driver End of transaction @3475---------------------
# PSELx = 0
# PENABLE = 0
#####################################################################################################
# ---------------------Driver in IDLE State @3475---------------------
# PSELx = 0
# PENABLE = 0
# ASSERTION PASS: Signals are stable throughout the SETUP and ACCESS States
# ---------------------Driver in SETUP State @3485---------------------
# PSELx = 1
# PENABLE = 1
# PWRITE= 1
# PADDR = 31
# PWDATA = 5316
# PSTRB = 0
# ASSERTION PASS: Signals are stable throughout the SETUP and ACCESS States
# ---------------------Driver in ACCESS State @3495---------------------
# PSELx = 1
# PENABLE = 1
# PWRITE= 1
# PADDR = 31
# PWDATA = 5316
# PSTRB = 0
# --------------------------------Active monitor @3495--------------------------------
# PSELx:	1
# PENABLE:	1
# PWRITE:	1
# PADDR:	31
# PWDATA:	5316
# PSTRB:	00
# -------------------------Scoreboard @ 3495-------------------------
# Scoreboard writing 0  data into memory at address 31
# ASSERTION PASS: Signals are stable throughout the SETUP and ACCESS States
# ASSERTION PASS: FSM works as intended
# ASSERTION PASS: Signals are stable throughout the SETUP and ACCESS States
# ASSERTION PASS: Signals are stable throughout the SETUP and ACCESS States
# ASSERTION PASS: Signals are stable throughout the SETUP and ACCESS States
# -------------------------------- Passive monitor @3545--------------------------------
# PRDATA:	e400
# PREADY:	1
# PSLVERR:	0
# ---------------------Driver End of transaction @3545---------------------
# PSELx = 0
# PENABLE = 0
# ---------------------Driver in IDLE State @3545---------------------
# PSELx = 0
# PENABLE = 0
# ASSERTION PASS: Signals are stable throughout the SETUP and ACCESS States
# ---------------------Driver in SETUP State @3555---------------------
# PSELx = 1
# PENABLE = 1
# PWRITE= 0
# PADDR = 31
# PSTRB = 3
# ASSERTION PASS: Signals are stable throughout the SETUP and ACCESS States
# ---------------------Driver in ACCESS State @3565---------------------
# PSELx = 1
# PENABLE = 1
# PWRITE= 0
# PADDR = 31
# PWDATA = df56
# PSTRB = 3
# --------------------------------Active monitor @3565--------------------------------
# PSELx:	1
# PENABLE:	1
# PWRITE:	0
# PADDR:	31
# PSTRB:	11
# ASSERTION PASS: Signals are stable throughout the SETUP and ACCESS States
# ASSERTION PASS: FSM works as intended
# ASSERTION PASS: Signals are stable throughout the SETUP and ACCESS States
# ASSERTION PASS: Signals are stable throughout the SETUP and ACCESS States
# ASSERTION PASS: Signals are stable throughout the SETUP and ACCESS States
# -------------------------------- Passive monitor @3615--------------------------------
# PRDATA:	0
# PREADY:	1
# PSLVERR:	0
# -------------------------Scoreboard @ 3615-------------------------
# Field		 Expected	Actual
# PRDATA	 0		0
# PSLVERR	     0		 0
# PREADY	     1		 1
# ********************************************TEST PASSED********************************************
# ---------------------Driver End of transaction @3615---------------------
# PSELx = 0
# PENABLE = 0
#####################################################################################################
# ---------------------Driver in IDLE State @3615---------------------
# PSELx = 0
# PENABLE = 0
# ASSERTION PASS: Signals are stable throughout the SETUP and ACCESS States
# ---------------------Driver in SETUP State @3625---------------------
# PSELx = 1
# PENABLE = 1
# PWRITE= 1
# PADDR = c
# PWDATA = 3fd2
# PSTRB = 1
# ASSERTION PASS: Signals are stable throughout the SETUP and ACCESS States
# ---------------------Driver in ACCESS State @3635---------------------
# PSELx = 1
# PENABLE = 1
# PWRITE= 1
# PADDR = c
# PWDATA = 3fd2
# PSTRB = 1
# --------------------------------Active monitor @3635--------------------------------
# PSELx:	1
# PENABLE:	1
# PWRITE:	1
# PADDR:	c
# PWDATA:	3fd2
# PSTRB:	01
# -------------------------Scoreboard @ 3635-------------------------
# Scoreboard writing d2  data into memory at address c
# ASSERTION PASS: Signals are stable throughout the SETUP and ACCESS States
# ASSERTION PASS: FSM works as intended
# ASSERTION PASS: Signals are stable throughout the SETUP and ACCESS States
# ASSERTION PASS: Signals are stable throughout the SETUP and ACCESS States
# ASSERTION PASS: Signals are stable throughout the SETUP and ACCESS States
# -------------------------------- Passive monitor @3685--------------------------------
# PRDATA:	0
# PREADY:	1
# PSLVERR:	0
# ---------------------Driver End of transaction @3685---------------------
# PSELx = 0
# PENABLE = 0
# ---------------------Driver in IDLE State @3685---------------------
# PSELx = 0
# PENABLE = 0
# ASSERTION PASS: Signals are stable throughout the SETUP and ACCESS States
# ---------------------Driver in SETUP State @3695---------------------
# PSELx = 1
# PENABLE = 1
# PWRITE= 0
# PADDR = c
# PSTRB = 1
# ASSERTION PASS: Signals are stable throughout the SETUP and ACCESS States
# ---------------------Driver in ACCESS State @3705---------------------
# PSELx = 1
# PENABLE = 1
# PWRITE= 0
# PADDR = c
# PWDATA = ba76
# PSTRB = 1
# --------------------------------Active monitor @3705--------------------------------
# PSELx:	1
# PENABLE:	1
# PWRITE:	0
# PADDR:	c
# PSTRB:	01
# ASSERTION PASS: Signals are stable throughout the SETUP and ACCESS States
# ASSERTION PASS: FSM works as intended
# ASSERTION PASS: Signals are stable throughout the SETUP and ACCESS States
# ASSERTION PASS: Signals are stable throughout the SETUP and ACCESS States
# ASSERTION PASS: Signals are stable throughout the SETUP and ACCESS States
# -------------------------------- Passive monitor @3755--------------------------------
# PRDATA:	d2
# PREADY:	1
# PSLVERR:	0
# -------------------------Scoreboard @ 3755-------------------------
# Field		 Expected	Actual
# PRDATA	 d2		d2
# PSLVERR	     0		 0
# PREADY	     1		 1
# ********************************************TEST PASSED********************************************
# ---------------------Driver End of transaction @3755---------------------
# PSELx = 0
# PENABLE = 0
#####################################################################################################
# ---------------------Driver in IDLE State @3755---------------------
# PSELx = 0
# PENABLE = 0
# ASSERTION PASS: Signals are stable throughout the SETUP and ACCESS States
# ---------------------Driver in SETUP State @3765---------------------
# PSELx = 1
# PENABLE = 1
# PWRITE= 1
# PADDR = 19
# PWDATA = c082
# PSTRB = 2
# ASSERTION PASS: Signals are stable throughout the SETUP and ACCESS States
# ---------------------Driver in ACCESS State @3775---------------------
# PSELx = 1
# PENABLE = 1
# PWRITE= 1
# PADDR = 19
# PWDATA = c082
# PSTRB = 2
# --------------------------------Active monitor @3775--------------------------------
# PSELx:	1
# PENABLE:	1
# PWRITE:	1
# PADDR:	19
# PWDATA:	c082
# PSTRB:	10
# -------------------------Scoreboard @ 3775-------------------------
# Scoreboard writing c000  data into memory at address 19
# ASSERTION PASS: Signals are stable throughout the SETUP and ACCESS States
# ASSERTION PASS: FSM works as intended
# ASSERTION PASS: Signals are stable throughout the SETUP and ACCESS States
# ASSERTION PASS: Signals are stable throughout the SETUP and ACCESS States
# ASSERTION PASS: Signals are stable throughout the SETUP and ACCESS States
# -------------------------------- Passive monitor @3825--------------------------------
# PRDATA:	d2
# PREADY:	1
# PSLVERR:	0
# ---------------------Driver End of transaction @3825---------------------
# PSELx = 0
# PENABLE = 0
# ---------------------Driver in IDLE State @3825---------------------
# PSELx = 0
# PENABLE = 0
# ASSERTION PASS: Signals are stable throughout the SETUP and ACCESS States
# ---------------------Driver in SETUP State @3835---------------------
# PSELx = 1
# PENABLE = 1
# PWRITE= 0
# PADDR = 19
# PSTRB = 0
# ASSERTION PASS: Signals are stable throughout the SETUP and ACCESS States
# ---------------------Driver in ACCESS State @3845---------------------
# PSELx = 1
# PENABLE = 1
# PWRITE= 0
# PADDR = 19
# PWDATA = 6b83
# PSTRB = 0
# --------------------------------Active monitor @3845--------------------------------
# PSELx:	1
# PENABLE:	1
# PWRITE:	0
# PADDR:	19
# PSTRB:	00
# ASSERTION PASS: Signals are stable throughout the SETUP and ACCESS States
# ASSERTION PASS: FSM works as intended
# ASSERTION PASS: Signals are stable throughout the SETUP and ACCESS States
# ASSERTION PASS: Signals are stable throughout the SETUP and ACCESS States
# ASSERTION PASS: Signals are stable throughout the SETUP and ACCESS States
# -------------------------------- Passive monitor @3895--------------------------------
# PRDATA:	c000
# PREADY:	1
# PSLVERR:	0
# -------------------------Scoreboard @ 3895-------------------------
# Field		 Expected	Actual
# PRDATA	 c000		c000
# PSLVERR	     0		 0
# PREADY	     1		 1
# ********************************************TEST PASSED********************************************
# ---------------------Driver End of transaction @3895---------------------
# PSELx = 0
# PENABLE = 0
#####################################################################################################
# ---------------------Driver in IDLE State @3895---------------------
# PSELx = 0
# PENABLE = 0
# ASSERTION PASS: Signals are stable throughout the SETUP and ACCESS States
# ---------------------Driver in SETUP State @3905---------------------
# PSELx = 1
# PENABLE = 0
# PWRITE= 1
# PADDR = 12
# PWDATA = b76c
# PSTRB = 2
# ASSERTION PASS: Signals are stable throughout the SETUP and ACCESS States
# ---------------------Driver in ACCESS State @3915---------------------
# PSELx = 1
# PENABLE = 1
# PWRITE= 1
# PADDR = 12
# PWDATA = b76c
# PSTRB = 2
# --------------------------------Active monitor @3915--------------------------------
# PSELx:	1
# PENABLE:	1
# PWRITE:	1
# PADDR:	12
# PWDATA:	b76c
# PSTRB:	10
# -------------------------Scoreboard @ 3915-------------------------
# Scoreboard writing b700  data into memory at address 12
# ASSERTION PASS: Signals are stable throughout the SETUP and ACCESS States
# ASSERTION PASS: FSM works as intended
# ASSERTION PASS: Signals are stable throughout the SETUP and ACCESS States
# ASSERTION PASS: Signals are stable throughout the SETUP and ACCESS States
# ASSERTION PASS: Signals are stable throughout the SETUP and ACCESS States
# -------------------------------- Passive monitor @3965--------------------------------
# PRDATA:	c000
# PREADY:	1
# PSLVERR:	0
# ---------------------Driver End of transaction @3965---------------------
# PSELx = 0
# PENABLE = 0
# ---------------------Driver in IDLE State @3965---------------------
# PSELx = 0
# PENABLE = 0
# ASSERTION PASS: Signals are stable throughout the SETUP and ACCESS States
# ---------------------Driver in SETUP State @3975---------------------
# PSELx = 1
# PENABLE = 1
# PWRITE= 0
# PADDR = 12
# PSTRB = 0
# ASSERTION PASS: Signals are stable throughout the SETUP and ACCESS States
# ---------------------Driver in ACCESS State @3985---------------------
# PSELx = 1
# PENABLE = 1
# PWRITE= 0
# PADDR = 12
# PWDATA = 5068
# PSTRB = 0
# --------------------------------Active monitor @3985--------------------------------
# PSELx:	1
# PENABLE:	1
# PWRITE:	0
# PADDR:	12
# PSTRB:	00
# ASSERTION PASS: Signals are stable throughout the SETUP and ACCESS States
# ASSERTION PASS: FSM works as intended
# ASSERTION PASS: Signals are stable throughout the SETUP and ACCESS States
# ASSERTION PASS: Signals are stable throughout the SETUP and ACCESS States
# ASSERTION PASS: Signals are stable throughout the SETUP and ACCESS States
# -------------------------------- Passive monitor @4035--------------------------------
# PRDATA:	b700
# PREADY:	1
# PSLVERR:	0
# -------------------------Scoreboard @ 4035-------------------------
# Field		 Expected	Actual
# PRDATA	 b700		b700
# PSLVERR	     0		 0
# PREADY	     1		 1
# ********************************************TEST PASSED********************************************
# ---------------------Driver End of transaction @4035---------------------
# PSELx = 0
# PENABLE = 0
#####################################################################################################
# ---------------------Driver in IDLE State @4035---------------------
# PSELx = 0
# PENABLE = 0
# ASSERTION PASS: Signals are stable throughout the SETUP and ACCESS States
# ---------------------Driver in SETUP State @4045---------------------
# PSELx = 1
# PENABLE = 1
# PWRITE= 1
# PADDR = 3a
# PWDATA = ef4d
# PSTRB = 3
# ASSERTION PASS: Signals are stable throughout the SETUP and ACCESS States
# ---------------------Driver in ACCESS State @4055---------------------
# PSELx = 1
# PENABLE = 1
# PWRITE= 1
# PADDR = 3a
# PWDATA = ef4d
# PSTRB = 3
# --------------------------------Active monitor @4055--------------------------------
# PSELx:	1
# PENABLE:	1
# PWRITE:	1
# PADDR:	3a
# PWDATA:	ef4d
# PSTRB:	11
# -------------------------Scoreboard @ 4055-------------------------
# Scoreboard writing ef4d  data into memory at address 3a
# ASSERTION PASS: Signals are stable throughout the SETUP and ACCESS States
# ASSERTION PASS: FSM works as intended
# ASSERTION PASS: Signals are stable throughout the SETUP and ACCESS States
# ASSERTION PASS: Signals are stable throughout the SETUP and ACCESS States
# ASSERTION PASS: Signals are stable throughout the SETUP and ACCESS States
# -------------------------------- Passive monitor @4105--------------------------------
# PRDATA:	b700
# PREADY:	1
# PSLVERR:	0
# ---------------------Driver End of transaction @4105---------------------
# PSELx = 0
# PENABLE = 0
# ---------------------Driver in IDLE State @4105---------------------
# PSELx = 0
# PENABLE = 0
# ASSERTION PASS: Signals are stable throughout the SETUP and ACCESS States
# ---------------------Driver in SETUP State @4115---------------------
# PSELx = 1
# PENABLE = 0
# PWRITE= 0
# PADDR = 3a
# PSTRB = 2
# ASSERTION PASS: Signals are stable throughout the SETUP and ACCESS States
# ---------------------Driver in ACCESS State @4125---------------------
# PSELx = 1
# PENABLE = 1
# PWRITE= 0
# PADDR = 3a
# PWDATA = fba7
# PSTRB = 2
# --------------------------------Active monitor @4125--------------------------------
# PSELx:	1
# PENABLE:	1
# PWRITE:	0
# PADDR:	3a
# PSTRB:	10
# ASSERTION PASS: Signals are stable throughout the SETUP and ACCESS States
# ASSERTION PASS: FSM works as intended
# ASSERTION PASS: Signals are stable throughout the SETUP and ACCESS States
# ASSERTION PASS: Signals are stable throughout the SETUP and ACCESS States
# ASSERTION PASS: Signals are stable throughout the SETUP and ACCESS States
# -------------------------------- Passive monitor @4175--------------------------------
# PRDATA:	ef4d
# PREADY:	1
# PSLVERR:	0
# -------------------------Scoreboard @ 4175-------------------------
# Field		 Expected	Actual
# PRDATA	 ef4d		ef4d
# PSLVERR	     0		 0
# PREADY	     1		 1
# ********************************************TEST PASSED********************************************
# ---------------------Driver End of transaction @4175---------------------
# PSELx = 0
# PENABLE = 0
#####################################################################################################
# ---------------------Driver in IDLE State @4175---------------------
# PSELx = 0
# PENABLE = 0
# ASSERTION PASS: Signals are stable throughout the SETUP and ACCESS States
# ---------------------Driver in SETUP State @4185---------------------
# PSELx = 1
# PENABLE = 0
# PWRITE= 1
# PADDR = 3a
# PWDATA = 9092
# PSTRB = 3
# ASSERTION PASS: Signals are stable throughout the SETUP and ACCESS States
# ---------------------Driver in ACCESS State @4195---------------------
# PSELx = 1
# PENABLE = 1
# PWRITE= 1
# PADDR = 3a
# PWDATA = 9092
# PSTRB = 3
# --------------------------------Active monitor @4195--------------------------------
# PSELx:	1
# PENABLE:	1
# PWRITE:	1
# PADDR:	3a
# PWDATA:	9092
# PSTRB:	11
# -------------------------Scoreboard @ 4195-------------------------
# Scoreboard writing 9092  data into memory at address 3a
# ASSERTION PASS: Signals are stable throughout the SETUP and ACCESS States
# ASSERTION PASS: FSM works as intended
# ASSERTION PASS: Signals are stable throughout the SETUP and ACCESS States
# ASSERTION PASS: Signals are stable throughout the SETUP and ACCESS States
# ASSERTION PASS: Signals are stable throughout the SETUP and ACCESS States
# -------------------------------- Passive monitor @4245--------------------------------
# PRDATA:	ef4d
# PREADY:	1
# PSLVERR:	0
# ---------------------Driver End of transaction @4245---------------------
# PSELx = 0
# PENABLE = 0
# ---------------------Driver in IDLE State @4245---------------------
# PSELx = 0
# PENABLE = 0
# ASSERTION PASS: Signals are stable throughout the SETUP and ACCESS States
# ---------------------Driver in SETUP State @4255---------------------
# PSELx = 1
# PENABLE = 1
# PWRITE= 0
# PADDR = 3a
# PSTRB = 0
# ASSERTION PASS: Signals are stable throughout the SETUP and ACCESS States
# ---------------------Driver in ACCESS State @4265---------------------
# PSELx = 1
# PENABLE = 1
# PWRITE= 0
# PADDR = 3a
# PWDATA = cda
# PSTRB = 0
# --------------------------------Active monitor @4265--------------------------------
# PSELx:	1
# PENABLE:	1
# PWRITE:	0
# PADDR:	3a
# PSTRB:	00
# ASSERTION PASS: Signals are stable throughout the SETUP and ACCESS States
# ASSERTION PASS: FSM works as intended
# ASSERTION PASS: Signals are stable throughout the SETUP and ACCESS States
# ASSERTION PASS: Signals are stable throughout the SETUP and ACCESS States
# ASSERTION PASS: Signals are stable throughout the SETUP and ACCESS States
# -------------------------------- Passive monitor @4315--------------------------------
# PRDATA:	9092
# PREADY:	1
# PSLVERR:	0
# -------------------------Scoreboard @ 4315-------------------------
# Field		 Expected	Actual
# PRDATA	 9092		9092
# PSLVERR	     0		 0
# PREADY	     1		 1
# ********************************************TEST PASSED********************************************
# ---------------------Driver End of transaction @4315---------------------
# PSELx = 0
# PENABLE = 0
#####################################################################################################
# ---------------------Driver in IDLE State @4315---------------------
# PSELx = 0
# PENABLE = 0
# ASSERTION PASS: Signals are stable throughout the SETUP and ACCESS States
# ---------------------Driver in SETUP State @4325---------------------
# PSELx = 1
# PENABLE = 0
# PWRITE= 1
# PADDR = 3e
# PWDATA = 8c26
# PSTRB = 0
# ASSERTION PASS: Signals are stable throughout the SETUP and ACCESS States
# ---------------------Driver in ACCESS State @4335---------------------
# PSELx = 1
# PENABLE = 1
# PWRITE= 1
# PADDR = 3e
# PWDATA = 8c26
# PSTRB = 0
# --------------------------------Active monitor @4335--------------------------------
# PSELx:	1
# PENABLE:	1
# PWRITE:	1
# PADDR:	3e
# PWDATA:	8c26
# PSTRB:	00
# -------------------------Scoreboard @ 4335-------------------------
# Scoreboard writing 0  data into memory at address 3e
# ASSERTION PASS: Signals are stable throughout the SETUP and ACCESS States
# ASSERTION PASS: FSM works as intended
# ASSERTION PASS: Signals are stable throughout the SETUP and ACCESS States
# ASSERTION PASS: Signals are stable throughout the SETUP and ACCESS States
# ASSERTION PASS: Signals are stable throughout the SETUP and ACCESS States
# -------------------------------- Passive monitor @4385--------------------------------
# PRDATA:	9092
# PREADY:	1
# PSLVERR:	0
# ---------------------Driver End of transaction @4385---------------------
# PSELx = 0
# PENABLE = 0
# ---------------------Driver in IDLE State @4385---------------------
# PSELx = 0
# PENABLE = 0
# ASSERTION PASS: Signals are stable throughout the SETUP and ACCESS States
# ---------------------Driver in SETUP State @4395---------------------
# PSELx = 1
# PENABLE = 1
# PWRITE= 0
# PADDR = 3e
# PSTRB = 0
# ASSERTION PASS: Signals are stable throughout the SETUP and ACCESS States
# ---------------------Driver in ACCESS State @4405---------------------
# PSELx = 1
# PENABLE = 1
# PWRITE= 0
# PADDR = 3e
# PWDATA = 62e3
# PSTRB = 0
# --------------------------------Active monitor @4405--------------------------------
# PSELx:	1
# PENABLE:	1
# PWRITE:	0
# PADDR:	3e
# PSTRB:	00
# ASSERTION PASS: Signals are stable throughout the SETUP and ACCESS States
# ASSERTION PASS: FSM works as intended
# ASSERTION PASS: Signals are stable throughout the SETUP and ACCESS States
# ASSERTION PASS: Signals are stable throughout the SETUP and ACCESS States
# ASSERTION PASS: Signals are stable throughout the SETUP and ACCESS States
